CITIFILE A.01.01
#Momentum: B.09.20.337 (*) 372.200 Aug 21 2011 
#Momentum Date and Time: Fri Aug 26 11:53:51 2011

NAME Momentum.SP

#  mode: MW    project: proj

CONSTANT NBR_OF_PORTS 4

CONSTANT NORMALIZATION 1

VAR freq MAG 50

DATA S[1,1] RI
DATA S[1,2] RI
DATA S[1,3] RI
DATA S[1,4] RI
DATA S[2,1] RI
DATA S[2,2] RI
DATA S[2,3] RI
DATA S[2,4] RI
DATA S[3,1] RI
DATA S[3,2] RI
DATA S[3,3] RI
DATA S[3,4] RI
DATA S[4,1] RI
DATA S[4,2] RI
DATA S[4,3] RI
DATA S[4,4] RI
DATA S_50[1,1] RI
DATA S_50[1,2] RI
DATA S_50[1,3] RI
DATA S_50[1,4] RI
DATA S_50[2,1] RI
DATA S_50[2,2] RI
DATA S_50[2,3] RI
DATA S_50[2,4] RI
DATA S_50[3,1] RI
DATA S_50[3,2] RI
DATA S_50[3,3] RI
DATA S_50[3,4] RI
DATA S_50[4,1] RI
DATA S_50[4,2] RI
DATA S_50[4,3] RI
DATA S_50[4,4] RI
DATA S_Z0[1,1] RI
DATA S_Z0[1,2] RI
DATA S_Z0[1,3] RI
DATA S_Z0[1,4] RI
DATA S_Z0[2,1] RI
DATA S_Z0[2,2] RI
DATA S_Z0[2,3] RI
DATA S_Z0[2,4] RI
DATA S_Z0[3,1] RI
DATA S_Z0[3,2] RI
DATA S_Z0[3,3] RI
DATA S_Z0[3,4] RI
DATA S_Z0[4,1] RI
DATA S_Z0[4,2] RI
DATA S_Z0[4,3] RI
DATA S_Z0[4,4] RI
DATA Z0[1] RI
DATA Z0[2] RI
DATA Z0[3] RI
DATA Z0[4] RI
DATA PORTZ[1] RI
DATA PORTZ[2] RI
DATA PORTZ[3] RI
DATA PORTZ[4] RI

VAR_LIST_BEGIN
	 200000000
	 400000000
	 600000000
	 800000000
	 1000000000
	 1200000000
	 1400000000
	 1600000000
	 1800000000
	 2000000000
	 2200000000
	 2400000000
	 2600000000
	 2800000000
	 3000000000
	 3200000000
	 3400000000
	 3600000000
	 3800000000
	 4000000000
	 4200000000
	 4400000000
	 4600000000
	 4800000000
	 5000000000
	 5200000000
	 5400000000
	 5600000000
	 5800000000
	 6000000000
	 6200000000
	 6400000000
	 6600000000
	 6800000000
	 7000000000
	 7200000000
	 7400000000
	 7600000000
	 7800000000
	 8000000000
	 8200000000
	 8400000000
	 8600000000
	 8800000000
	 9000000000
	 9200000000
	 9400000000
	 9600000000
	 9800000000
	 1e+010
VAR_LIST_END

BEGIN
	 0.105240335,	 0.0486513323
	 0.085405827,	-0.0276693197
	 0.0732943594,	-0.0018146855
	 0.0643289922,	-0.0200181718
	 0.0536518462,	 0.0211587576
	 0.115302417,	 0.00884001557
	 0.0817417957,	-0.0587342454
	 0.0247365039,	-0.0152055654
	 0.0664387669,	 0.0212076512
	 0.0855570883,	-0.00826702519
	 0.0784236825,	-0.0249860959
	 0.0521056252,	-0.0390082883
	 0.0300021737,	-0.00706830919
	 0.0594507752,	 0.00772287075
	 0.059861059,	-0.0147279725
	 0.0430477734,	-0.00753108019
	 0.0501833239,	 0.00820089012
	 0.0696440118,	 0.00513593729
	 0.0732928557,	-0.023800726
	 0.0385498492,	-0.0359243832
	 0.0196448739,	-0.00773614054
	 0.0362860296,	 0.00681064399
	 0.0365562968,	-0.010581053
	-0.00285049899,	-0.00143063206
	-0.00263386634,	 0.0683236865
	 0.0813173126,	 0.0910901007
	 0.124846701,	 0.0191742169
	 0.0753173379,	-0.0369777125
	 0.0108225977,	 0.000677164957
	 0.043950756,	 0.0751429581
	 0.129167479,	 0.0499944845
	 0.11761563,	-0.0321068687
	 0.0531152263,	-0.0339085544
	 0.050688627,	 0.0149037905
	 0.0970631687,	 0.00960975394
	 0.0921208547,	-0.0522181493
	 0.00972107524,	-0.0558238746
	-0.00234282731,	 0.0307319069
	 0.0699891826,	 0.0455433428
	 0.0850414402,	-0.0129112009
	 0.0194671744,	-0.0342580742
	-0.0171120794,	 0.0576832346
	 0.0979657103,	 0.112710646
	 0.162671126,	-0.00295268952
	 0.0654194755,	-0.058954278
	 0.0353383486,	 0.0164802002
	 0.0908717873,	 0.0229007603
	 0.103010963,	-0.00768711724
	 0.0985629157,	-0.0639621737
	-0.00423584724,	-0.0586844517
END
BEGIN
	 0.438378063,	-0.84010394
	-0.457288736,	-0.70054132
	-0.70018411,	 0.0203590952
	-0.317153112,	 0.502582196
	 0.210336566,	 0.478670809
	 0.471460833,	 0.0982636486
	 0.364376991,	-0.325208104
	-0.0674237246,	-0.525061241
	-0.516953374,	-0.253424999
	-0.544413251,	 0.31880532
	-0.0214570433,	 0.688214611
	 0.609830742,	 0.397846315
	 0.678720273,	-0.323852765
	 0.0753205227,	-0.757964925
	-0.602527496,	-0.455398013
	-0.693701962,	 0.265656024
	-0.138808259,	 0.716362896
	 0.51911939,	 0.485112631
	 0.675713992,	-0.167400167
	 0.228353578,	-0.658950609
	-0.43743978,	-0.550590157
	-0.705961741,	 0.0737058086
	-0.321246995,	 0.645849067
	 0.383553501,	 0.622701906
	 0.733907284,	 0.000755871746
	 0.382543817,	-0.617579095
	-0.310737243,	-0.638890577
	-0.692876265,	-0.085695966
	-0.440220748,	 0.535205941
	 0.215530703,	 0.640911385
	 0.636775286,	 0.171333164
	 0.506869561,	-0.439112289
	-0.104906641,	-0.684599545
	-0.645636231,	-0.275755066
	-0.59052401,	 0.400618497
	 0.0240862502,	 0.732577874
	 0.648721683,	 0.36604613
	 0.641088106,	-0.365788925
	 0.0168956679,	-0.709711234
	-0.556867151,	-0.365173005
	-0.562754423,	 0.252676762
	-0.083072709,	 0.554822267
	 0.368584211,	 0.343148089
	 0.467774937,	-0.0881326604
	 0.202724015,	-0.44173029
	-0.268030421,	-0.444855226
	-0.584674901,	-0.0416151516
	-0.433121527,	 0.552163099
	 0.293244235,	 0.784493177
	 0.943356445,	 0.142510854
END
BEGIN
	 0.262433278,	 0.134246428
	 0.451822675,	-0.288638203
	-0.0206055284,	-0.705646677
	-0.67913921,	-0.419201548
	-0.778474202,	 0.334346217
	-0.185297537,	 0.845526162
	 0.579391973,	 0.641397254
	 0.83929074,	-0.10901509
	 0.360154515,	-0.728330771
	-0.395059212,	-0.656860057
	-0.714571588,	-0.0162941307
	-0.374002263,	 0.566322424
	 0.283053614,	 0.592344378
	 0.638877554,	 0.0639614462
	 0.395023497,	-0.514286227
	-0.238724017,	-0.620748958
	-0.666520758,	-0.129146505
	-0.479845926,	 0.503138639
	 0.168860634,	 0.687842618
	 0.673174015,	 0.229952176
	 0.555359382,	-0.440498421
	-0.0735239724,	-0.697002354
	-0.617516693,	-0.305170934
	-0.579253723,	 0.356532158
	-0.00153276564,	 0.670984764
	 0.559034414,	 0.359577706
	 0.619568161,	-0.278073605
	 0.0956708388,	-0.697625111
	-0.555066878,	-0.456587221
	-0.688544435,	 0.226326302
	-0.182798072,	 0.702388522
	 0.484384953,	 0.532626911
	 0.704467511,	-0.111803737
	 0.27877539,	-0.648374175
	-0.394342853,	-0.55916005
	-0.660854341,	 0.0339560842
	-0.322029591,	 0.57598747
	 0.330872503,	 0.582986674
	 0.691075092,	 0.0254054001
	 0.411362708,	-0.607124013
	-0.318310914,	-0.714880968
	-0.813161126,	-0.119971077
	-0.566449337,	 0.624766533
	 0.181704102,	 0.835965682
	 0.790447507,	 0.347689228
	 0.729777723,	-0.436041491
	 0.0515121302,	-0.797071833
	-0.554831428,	-0.41663147
	-0.486910254,	 0.189587616
	-0.039863948,	 0.277895967
END
BEGIN
	-0.0323580567,	 0.0237555534
	 0.0606323626,	 0.0269174592
	-0.00238838932,	-0.0726774729
	-0.0634484855,	 0.0301234452
	 0.0493362484,	 0.0508326472
	 0.0413741062,	-0.0562704351
	-0.0522373676,	-0.0290886378
	-0.00202610973,	 0.0428605487
	 0.0348629322,	-0.0372342154
	-0.0706411,	-0.0324857954
	-0.0284990402,	 0.0794644457
	 0.0601449776,	 0.0116838441
	-0.0197603134,	-0.0279944258
	-0.00224302696,	 0.0502511707
	 0.0597708843,	-0.0115222322
	-0.0248676106,	-0.0415494735
	-0.0100978244,	 0.0471002948
	 0.0705517371,	-0.0108629582
	-0.0125015761,	-0.0758304502
	-0.0522717448,	 0.0089021981
	 0.0174688587,	 0.0129712578
	-0.0131755244,	-0.0348697784
	-0.036536047,	 0.0107291109
	-0.00501886987,	 0.000512472294
	-0.0626559592,	 0.00436731677
	-0.0249277765,	 0.110927385
	 0.109277648,	 0.0589521644
	 0.0545701674,	-0.0624271818
	-0.0104241712,	 0.00433742909
	 0.0827399045,	-0.00622699241
	 0.0165361203,	-0.126059677
	-0.111568728,	-0.0381849566
	-0.0156697338,	 0.0632320187
	 0.0276533002,	-0.0448448746
	-0.0928038451,	-0.0311502445
	-0.0519082453,	 0.0855566653
	 0.0286919067,	 0.0432735407
	-0.0100453291,	 0.029970061
	 0.0435974532,	 0.0704511823
	 0.0843942165,	-0.0131094164
	 0.015996649,	-0.0338070129
	 0.0428395726,	-0.00487268784
	 0.0401401766,	-0.0846973601
	-0.0711442104,	-0.0767968334
	-0.0674558668,	 0.0386431614
	 0.0347995146,	 0.0202980722
	-0.0181904895,	-0.0691811054
	-0.101750668,	 0.0172366449
	-0.0130436733,	 0.0806681034
	 0.00929488589,	 0.0447636326
END
BEGIN
	 0.438378063,	-0.84010394
	-0.457288736,	-0.70054132
	-0.70018411,	 0.0203590952
	-0.317153112,	 0.502582196
	 0.210336566,	 0.478670809
	 0.471460833,	 0.0982636486
	 0.364376991,	-0.325208104
	-0.0674237246,	-0.525061241
	-0.516953374,	-0.253424999
	-0.544413251,	 0.31880532
	-0.0214570433,	 0.688214611
	 0.609830742,	 0.397846315
	 0.678720273,	-0.323852765
	 0.0753205227,	-0.757964925
	-0.602527496,	-0.455398013
	-0.693701962,	 0.265656024
	-0.138808259,	 0.716362896
	 0.51911939,	 0.485112631
	 0.675713992,	-0.167400167
	 0.228353578,	-0.658950609
	-0.43743978,	-0.550590157
	-0.705961741,	 0.0737058086
	-0.321246995,	 0.645849067
	 0.383553501,	 0.622701906
	 0.733907284,	 0.000755871746
	 0.382543817,	-0.617579095
	-0.310737243,	-0.638890577
	-0.692876265,	-0.085695966
	-0.440220748,	 0.535205941
	 0.215530703,	 0.640911385
	 0.636775286,	 0.171333164
	 0.506869561,	-0.439112289
	-0.104906641,	-0.684599545
	-0.645636231,	-0.275755066
	-0.59052401,	 0.400618497
	 0.0240862502,	 0.732577874
	 0.648721683,	 0.36604613
	 0.641088106,	-0.365788925
	 0.0168956679,	-0.709711234
	-0.556867151,	-0.365173005
	-0.562754423,	 0.252676762
	-0.083072709,	 0.554822267
	 0.368584211,	 0.343148089
	 0.467774937,	-0.0881326604
	 0.202724015,	-0.44173029
	-0.268030421,	-0.444855226
	-0.584674901,	-0.0416151516
	-0.433121527,	 0.552163099
	 0.293244235,	 0.784493177
	 0.943356445,	 0.142510854
END
BEGIN
	 0.105240885,	 0.0486511185
	 0.0854053455,	-0.0276685571
	 0.0733034806,	-0.00180289136
	 0.0643743906,	-0.0200233542
	 0.0536931641,	 0.0210881691
	 0.115270063,	 0.00873842748
	 0.081647977,	-0.0587794954
	 0.0246863567,	-0.0151840914
	 0.0664666131,	 0.0211698595
	 0.0855246298,	-0.00844756214
	 0.0781605661,	-0.0252161791
	 0.0515567047,	-0.0390130405
	 0.0294999334,	-0.00658050557
	 0.0594380511,	 0.00839999767
	 0.0600657503,	-0.0143458683
	 0.0430812908,	-0.0070936295
	 0.0505962012,	 0.00901156388
	 0.0708446442,	 0.00554803181
	 0.0744693829,	-0.0243788186
	 0.0389767688,	-0.0369016453
	 0.0196532001,	-0.00840751777
	 0.0364319956,	 0.00616924838
	 0.0364074672,	-0.0117016914
	-0.0040218259,	-0.00240334529
	-0.0041864205,	 0.068572752
	 0.0806536051,	 0.0921284396
	 0.124862043,	 0.0198501909
	 0.0751914507,	-0.0364694914
	 0.010948054,	 0.00158371513
	 0.0449092449,	 0.0758112122
	 0.130234857,	 0.0496885151
	 0.117957151,	-0.0328074299
	 0.0531420339,	-0.0341381795
	 0.0513184778,	 0.0146785406
	 0.0976695904,	 0.00828848215
	 0.0911763562,	-0.0540726529
	 0.00744822623,	-0.0561450038
	-0.0036014225,	 0.0321145901
	 0.0700778186,	 0.0464637565
	 0.0846900166,	-0.012553145
	 0.0191076947,	-0.0329191824
	-0.0159324498,	 0.0591122324
	 0.0997053524,	 0.112642513
	 0.163577114,	-0.0038668794
	 0.0656450203,	-0.0597206362
	 0.0354829708,	 0.0160694246
	 0.0913091886,	 0.0224477272
	 0.103200577,	-0.00870189273
	 0.0978293126,	-0.0642616883
	-0.00320267782,	-0.057953836
END
BEGIN
	-0.0323553188,	 0.023755465
	 0.0606417418,	 0.0269133513
	-0.00237648975,	-0.0727103258
	-0.06349015,	 0.0300658341
	 0.0492300994,	 0.0508343205
	 0.0413003613,	-0.0561676373
	-0.0522011222,	-0.0289699522
	-0.00193896957,	 0.0428820879
	 0.034843394,	-0.0372647452
	-0.0707119152,	-0.0323330993
	-0.0282483967,	 0.0797292298
	 0.0606515701,	 0.0114944802
	-0.0197639628,	-0.0286012392
	-0.00274393397,	 0.0501362639
	 0.0597692877,	-0.011169011
	-0.0244670052,	-0.041824729
	-0.0105395451,	 0.0464029515
	 0.0695362017,	-0.0105571989
	-0.0125167378,	-0.0747755761
	-0.0514889942,	 0.00907951457
	 0.0174352856,	 0.0124632238
	-0.0137588064,	-0.034438942
	-0.035955463,	 0.0117494675
	-0.00359992098,	 0.000252779284
	-0.0623788484,	 0.00300374413
	-0.0258076725,	 0.110387142
	 0.108990747,	 0.0594083609
	 0.0551175601,	-0.0626124688
	-0.0107253969,	 0.00325140253
	 0.0812249242,	-0.00640858204
	 0.0156565836,	-0.124720824
	-0.110887088,	-0.0370246259
	-0.0148574262,	 0.0630412632
	 0.0272968822,	-0.0451306841
	-0.0930581912,	-0.0301764557
	-0.0505534363,	 0.086457332
	 0.0303558074,	 0.0422294181
	-0.0103460569,	 0.0281523173
	 0.042326202,	 0.0702936974
	 0.0845115121,	-0.0124728023
	 0.0165745536,	-0.0345957088
	 0.041751162,	-0.00597545363
	 0.0385794881,	-0.0840568244
	-0.071252809,	-0.0754138751
	-0.0667498693,	 0.0390247341
	 0.03477885,	 0.0200743921
	-0.0185743945,	-0.0687070141
	-0.101533303,	 0.0180046203
	-0.0125428208,	 0.0814847087
	 0.0111845546,	 0.0453541637
END
BEGIN
	 0.262434117,	 0.134245109
	 0.451819019,	-0.288642554
	-0.0206140598,	-0.705642168
	-0.67913774,	-0.419194545
	-0.778477593,	 0.334351534
	-0.185286061,	 0.845544576
	 0.579422418,	 0.641385869
	 0.839287407,	-0.109048218
	 0.360128753,	-0.728341436
	-0.395083686,	-0.656847144
	-0.714573439,	-0.0162628588
	-0.373974585,	 0.56634036
	 0.283087968,	 0.592329641
	 0.638881819,	 0.0639160656
	 0.39498176,	-0.51431324
	-0.238775301,	-0.620729567
	-0.66653496,	-0.129076063
	-0.479774208,	 0.503183229
	 0.168921378,	 0.687796468
	 0.673174352,	 0.22989433
	 0.555323431,	-0.440547069
	-0.0736013536,	-0.697002645
	-0.617556982,	-0.30509722
	-0.579210793,	 0.356602127
	-0.00145041403,	 0.670984608
	 0.559073849,	 0.359505167
	 0.619523994,	-0.278133029
	 0.0956190877,	-0.697612939
	-0.555078426,	-0.456570367
	-0.688580281,	 0.226351123
	-0.182771968,	 0.702479376
	 0.484519499,	 0.532610755
	 0.704464809,	-0.111957487
	 0.27863744,	-0.648384536
	-0.394368062,	-0.559068855
	-0.66082143,	 0.0339939353
	-0.321987072,	 0.576005089
	 0.33091698,	 0.582965187
	 0.69110161,	 0.025352302
	 0.411312735,	-0.607211416
	-0.318440974,	-0.714844968
	-0.81315206,	-0.11983744
	-0.566343284,	 0.624785465
	 0.181727398,	 0.835897217
	 0.790412943,	 0.347688689
	 0.729793459,	-0.436030813
	 0.0515176634,	-0.797066583
	-0.554786738,	-0.416644765
	-0.486919713,	 0.189527683
	-0.0399039175,	 0.277894449
END
BEGIN
	 0.262433278,	 0.134246428
	 0.451822675,	-0.288638203
	-0.0206055284,	-0.705646677
	-0.67913921,	-0.419201548
	-0.778474202,	 0.334346217
	-0.185297537,	 0.845526162
	 0.579391973,	 0.641397254
	 0.83929074,	-0.10901509
	 0.360154515,	-0.728330771
	-0.395059212,	-0.656860057
	-0.714571588,	-0.0162941307
	-0.374002263,	 0.566322424
	 0.283053614,	 0.592344378
	 0.638877554,	 0.0639614462
	 0.395023497,	-0.514286227
	-0.238724017,	-0.620748958
	-0.666520758,	-0.129146505
	-0.479845926,	 0.503138639
	 0.168860634,	 0.687842618
	 0.673174015,	 0.229952176
	 0.555359382,	-0.440498421
	-0.0735239724,	-0.697002354
	-0.617516693,	-0.305170934
	-0.579253723,	 0.356532158
	-0.00153276564,	 0.670984764
	 0.559034414,	 0.359577706
	 0.619568161,	-0.278073605
	 0.0956708388,	-0.697625111
	-0.555066878,	-0.456587221
	-0.688544435,	 0.226326302
	-0.182798072,	 0.702388522
	 0.484384953,	 0.532626911
	 0.704467511,	-0.111803737
	 0.27877539,	-0.648374175
	-0.394342853,	-0.55916005
	-0.660854341,	 0.0339560842
	-0.322029591,	 0.57598747
	 0.330872503,	 0.582986674
	 0.691075092,	 0.0254054001
	 0.411362708,	-0.607124013
	-0.318310914,	-0.714880968
	-0.813161126,	-0.119971077
	-0.566449337,	 0.624766533
	 0.181704102,	 0.835965682
	 0.790447507,	 0.347689228
	 0.729777723,	-0.436041491
	 0.0515121302,	-0.797071833
	-0.554831428,	-0.41663147
	-0.486910254,	 0.189587616
	-0.039863948,	 0.277895967
END
BEGIN
	-0.0323553188,	 0.023755465
	 0.0606417418,	 0.0269133513
	-0.00237648975,	-0.0727103258
	-0.06349015,	 0.0300658341
	 0.0492300994,	 0.0508343205
	 0.0413003613,	-0.0561676373
	-0.0522011222,	-0.0289699522
	-0.00193896957,	 0.0428820879
	 0.034843394,	-0.0372647452
	-0.0707119152,	-0.0323330993
	-0.0282483967,	 0.0797292298
	 0.0606515701,	 0.0114944802
	-0.0197639628,	-0.0286012392
	-0.00274393397,	 0.0501362639
	 0.0597692877,	-0.011169011
	-0.0244670052,	-0.041824729
	-0.0105395451,	 0.0464029515
	 0.0695362017,	-0.0105571989
	-0.0125167378,	-0.0747755761
	-0.0514889942,	 0.00907951457
	 0.0174352856,	 0.0124632238
	-0.0137588064,	-0.034438942
	-0.035955463,	 0.0117494675
	-0.00359992098,	 0.000252779284
	-0.0623788484,	 0.00300374413
	-0.0258076725,	 0.110387142
	 0.108990747,	 0.0594083609
	 0.0551175601,	-0.0626124688
	-0.0107253969,	 0.00325140253
	 0.0812249242,	-0.00640858204
	 0.0156565836,	-0.124720824
	-0.110887088,	-0.0370246259
	-0.0148574262,	 0.0630412632
	 0.0272968822,	-0.0451306841
	-0.0930581912,	-0.0301764557
	-0.0505534363,	 0.086457332
	 0.0303558074,	 0.0422294181
	-0.0103460569,	 0.0281523173
	 0.042326202,	 0.0702936974
	 0.0845115121,	-0.0124728023
	 0.0165745536,	-0.0345957088
	 0.041751162,	-0.00597545363
	 0.0385794881,	-0.0840568244
	-0.071252809,	-0.0754138751
	-0.0667498693,	 0.0390247341
	 0.03477885,	 0.0200743921
	-0.0185743945,	-0.0687070141
	-0.101533303,	 0.0180046203
	-0.0125428208,	 0.0814847087
	 0.0111845546,	 0.0453541637
END
BEGIN
	 0.105241613,	 0.0486435297
	 0.0854073203,	-0.0276888898
	 0.0732614307,	-0.00183785992
	 0.0642970384,	-0.0199803453
	 0.0537158725,	 0.0211969847
	 0.115386712,	 0.00875725374
	 0.0817197595,	-0.0588528194
	 0.0247286936,	-0.0152548865
	 0.0665221387,	 0.0210119426
	 0.0853888418,	-0.00868771003
	 0.0778827415,	-0.0252327145
	 0.051506016,	-0.0389227962
	 0.0294219421,	-0.00681782004
	 0.0587873845,	 0.00828619847
	 0.059432118,	-0.0135967964
	 0.0434639845,	-0.00608467504
	 0.0514866736,	 0.0090970732
	 0.0710388788,	 0.00506384714
	 0.074202737,	-0.0243185395
	 0.0392543367,	-0.0364964532
	 0.0202814936,	-0.00859490135
	 0.0365218188,	 0.00553781093
	 0.0359999992,	-0.011981688
	-0.00426644986,	-0.00225849371
	-0.00415888073,	 0.0686094126
	 0.0804734999,	 0.0919628689
	 0.124327003,	 0.0199992735
	 0.0749152192,	-0.0356729829
	 0.0114827195,	 0.00237884638
	 0.0456730177,	 0.0759434475
	 0.130654765,	 0.0497279105
	 0.118842307,	-0.0325106634
	 0.0547259008,	-0.0349155849
	 0.0516374511,	 0.0124049384
	 0.0959425816,	 0.00691371594
	 0.0897400465,	-0.0534993951
	 0.00738496342,	-0.0555631726
	-0.00388681678,	 0.031918696
	 0.0692523867,	 0.0468934307
	 0.0846434226,	-0.0114799198
	 0.0198684181,	-0.0324586619
	-0.0154754441,	 0.0587768512
	 0.0995585773,	 0.11230923
	 0.163224085,	-0.00389740056
	 0.0652787263,	-0.0595110356
	 0.0352060552,	 0.0164839966
	 0.0912404978,	 0.0229491006
	 0.103259397,	-0.00834044588
	 0.0977584582,	-0.0639984029
	-0.00337897072,	-0.0575431218
END
BEGIN
	 0.438379422,	-0.84010363
	-0.457286697,	-0.70054104
	-0.700184204,	 0.0203563391
	-0.317154841,	 0.502584891
	 0.210337602,	 0.478672243
	 0.47145866,	 0.0982723681
	 0.364394179,	-0.325189355
	-0.0673741053,	-0.525065126
	-0.516910803,	-0.253504439
	-0.544494076,	 0.318700904
	-0.0216018407,	 0.688242141
	 0.609747541,	 0.397988781
	 0.678821985,	-0.323644818
	 0.0755920255,	-0.757989627
	-0.602434363,	-0.455621601
	-0.693774553,	 0.265430227
	-0.139113419,	 0.716239848
	 0.518829994,	 0.485374426
	 0.675805149,	-0.167030597
	 0.228693846,	-0.658818909
	-0.437136232,	-0.55080825
	-0.706007993,	 0.0733471293
	-0.321545286,	 0.645721942
	 0.383288661,	 0.622864016
	 0.733903339,	 0.00109395855
	 0.382872208,	-0.617417207
	-0.310453802,	-0.639111016
	-0.692886614,	-0.0860327457
	-0.440516127,	 0.534946704
	 0.215052475,	 0.641050112
	 0.636638307,	 0.1718566
	 0.507205914,	-0.438636904
	-0.104146116,	-0.684574728
	-0.645246867,	-0.276602279
	-0.591166229,	 0.400010697
	 0.0234433562,	 0.732789848
	 0.648466253,	 0.366579103
	 0.641417338,	-0.365231799
	 0.0174943451,	-0.709773335
	-0.55667158,	-0.365606216
	-0.562932919,	 0.252342378
	-0.0833731332,	 0.554783664
	 0.368451495,	 0.343301591
	 0.467802542,	-0.0880354665
	 0.202730006,	-0.441747343
	-0.268137579,	-0.444812665
	-0.584673518,	-0.0414184681
	-0.432931957,	 0.552271551
	 0.293492799,	 0.784421845
	 0.943435573,	 0.142156884
END
BEGIN
	-0.0323580567,	 0.0237555534
	 0.0606323626,	 0.0269174592
	-0.00238838932,	-0.0726774729
	-0.0634484855,	 0.0301234452
	 0.0493362484,	 0.0508326472
	 0.0413741062,	-0.0562704351
	-0.0522373676,	-0.0290886378
	-0.00202610973,	 0.0428605487
	 0.0348629322,	-0.0372342154
	-0.0706411,	-0.0324857954
	-0.0284990402,	 0.0794644457
	 0.0601449776,	 0.0116838441
	-0.0197603134,	-0.0279944258
	-0.00224302696,	 0.0502511707
	 0.0597708843,	-0.0115222322
	-0.0248676106,	-0.0415494735
	-0.0100978244,	 0.0471002948
	 0.0705517371,	-0.0108629582
	-0.0125015761,	-0.0758304502
	-0.0522717448,	 0.0089021981
