! Created Mon May 20 11:15:58 2013
# ghz S ma R 50
! 2 Port Network Data from SP1.SP block
! freq  magS11  angS11  magS21  angS21  magS12  angS12  magS22  angS22  
!     
             1      0.044199        -50.172        0.82177         131.92        0.82177         131.92       0.044199        -50.172
          1.05      0.042687        -54.659        0.82932         116.96        0.82932         116.96       0.042687        -54.659
           1.1        0.0419        -59.862        0.83523         102.02        0.83523         102.02         0.0419        -59.862
          1.15      0.041447        -66.544        0.83961          87.08        0.83961          87.08       0.041447        -66.544
           1.2      0.040828        -75.072        0.84255         72.132        0.84255         72.132       0.040828        -75.072
          1.25      0.039642          -85.5        0.84413         57.165        0.84413         57.165       0.039642          -85.5
           1.3      0.037688        -97.752        0.84443         42.171        0.84443         42.171       0.037688        -97.752
          1.35      0.034988        -111.76         0.8435         27.145         0.8435         27.145       0.034988        -111.76
           1.4      0.031752        -127.53        0.84139         12.081        0.84139         12.081       0.031752        -127.53
          1.45       0.02832        -145.06        0.83818        -3.0266        0.83818        -3.0266        0.02832        -145.06
           1.5       0.02509        -164.29        0.83391         -18.18        0.83391         -18.18        0.02509        -164.29
          1.55       0.02241         175.24        0.82868        -33.381        0.82868        -33.381        0.02241         175.24
           1.6      0.020463         154.54        0.82256        -48.631        0.82256        -48.631       0.020463         154.54
          1.65      0.019199         135.06        0.81565        -63.933        0.81565        -63.933       0.019199         135.06
           1.7      0.018398         118.16        0.80805        -79.286        0.80805        -79.286       0.018398         118.16
          1.75      0.017825         104.67        0.79988        -94.691        0.79988        -94.691       0.017825         104.67
           1.8      0.017355         94.919        0.79125        -110.15        0.79125        -110.15       0.017355         94.919
          1.85      0.017016         88.894        0.78229        -125.66        0.78229        -125.66       0.017016         88.894
           1.9      0.016957         86.297        0.77309        -141.22        0.77309        -141.22       0.016957         86.297
          1.95      0.017412          86.47        0.76378        -156.83        0.76378        -156.83       0.017412          86.47
             2      0.018648         88.319        0.75444         -172.5        0.75444         -172.5       0.018648         88.319
          2.05      0.020918         90.427        0.74516         171.79        0.74516         171.79       0.020918         90.427
           2.1      0.024385         91.457        0.73599         156.03        0.73599         156.03       0.024385         91.457
          2.15      0.029077         90.562        0.72702         140.24        0.72702         140.24       0.029077         90.562
           2.2      0.034851         87.481        0.71832         124.42        0.71832         124.42       0.034851         87.481
          2.25      0.041411          82.37        0.71001         108.59        0.71001         108.59       0.041411          82.37
           2.3      0.048328         75.566        0.70225         92.766        0.70225         92.766       0.048328         75.566
          2.35      0.055087         67.453        0.69522         76.947        0.69522         76.947       0.055087         67.453
           2.4      0.061141         58.395        0.68912         61.147        0.68912         61.147       0.061141         58.395
          2.45      0.065981         48.723        0.68416         45.364        0.68416         45.364       0.065981         48.723
           2.5      0.069201          38.73        0.68049         29.595        0.68049         29.595       0.069201          38.73
          2.55      0.070551         28.681        0.67819         13.828        0.67819         13.828       0.070551         28.681
           2.6      0.069966         18.815        0.67724        -1.9477        0.67724        -1.9477       0.069966         18.815
          2.65       0.06756         9.3485        0.67753        -17.744        0.67753        -17.744        0.06756         9.3485
           2.7      0.063591        0.48315        0.67889        -33.566        0.67889        -33.566       0.063591        0.48315
          2.75       0.05841        -7.5905        0.68107        -49.413        0.68107        -49.413        0.05841        -7.5905
           2.8      0.052397        -14.675        0.68387         -65.28        0.68387         -65.28       0.052397        -14.675
          2.85       0.04592         -20.53        0.68707        -81.153        0.68707        -81.153        0.04592         -20.53
           2.9      0.039314        -24.814        0.69055        -97.019        0.69055        -97.019       0.039314        -24.814
          2.95      0.032895        -26.972        0.69423        -112.86        0.69423        -112.86       0.032895        -26.972
             3       0.02701        -26.074        0.69809        -128.68        0.69809        -128.68        0.02701        -26.074
          3.05      0.022152        -20.727        0.70215        -144.45        0.70215        -144.45       0.022152        -20.727
           3.1      0.019077        -9.8807        0.70641        -160.19        0.70641        -160.19       0.019077        -9.8807
          3.15      0.018589         4.2562        0.71087        -175.89        0.71087        -175.89       0.018589         4.2562
           3.2      0.020705         15.761        0.71546         168.43        0.71546         168.43       0.020705         15.761
          3.25      0.024465         21.349         0.7201         152.77         0.7201         152.77       0.024465         21.349
           3.3      0.028758         21.821        0.72466         137.13        0.72466         137.13       0.028758         21.821
          3.35      0.032742         18.908          0.729         121.51          0.729         121.51       0.032742         18.908
           3.4      0.035825         13.973          0.733          105.9          0.733          105.9       0.035825         13.973
          3.45      0.037624         7.9826        0.73658         90.305        0.73658         90.305       0.037624         7.9826
           3.5      0.037956         1.6835         0.7397         74.735         0.7397         74.735       0.037956         1.6835
          3.55      0.036848        -4.2636        0.74235         59.188        0.74235         59.188       0.036848        -4.2636
           3.6      0.034538        -9.1821        0.74455         43.664        0.74455         43.664       0.034538        -9.1821
          3.65      0.031462         -12.32        0.74633         28.158        0.74633         28.158       0.031462         -12.32
           3.7      0.028246        -12.911        0.74772         12.666        0.74772         12.666       0.028246        -12.911
          3.75      0.025628        -10.559        0.74875        -2.8189        0.74875        -2.8189       0.025628        -10.559
           3.8      0.024244        -6.0135        0.74939        -18.304        0.74939        -18.304       0.024244        -6.0135
          3.85      0.024262        -1.3674        0.74962        -33.795        0.74962        -33.795       0.024262        -1.3674
           3.9      0.025229         1.3922         0.7494        -49.298         0.7494        -49.298       0.025229         1.3922
          3.95      0.026398         1.7317        0.74869        -64.815        0.74869        -64.815       0.026398         1.7317
             4      0.027126        0.27566        0.74744        -80.345        0.74744        -80.345       0.027126        0.27566
          4.05      0.027061        -1.9556        0.74566        -95.887        0.74566        -95.887       0.027061        -1.9556
           4.1      0.026154        -3.9092         0.7434        -111.44         0.7434        -111.44       0.026154        -3.9092
          4.15      0.024633        -4.5961         0.7407           -127         0.7407           -127       0.024633        -4.5961
           4.2       0.02293        -3.2038        0.73768        -142.56        0.73768        -142.56        0.02293        -3.2038
          4.25      0.021582        0.58105        0.73444        -158.13        0.73444        -158.13       0.021582        0.58105
           4.3      0.021052         6.1286        0.73109        -173.72        0.73109        -173.72       0.021052         6.1286
          4.35      0.021525         11.949         0.7277         170.68         0.7277         170.68       0.021525         11.949
           4.4       0.02286         16.642        0.72433         155.05        0.72433         155.05        0.02286         16.642
          4.45      0.024761         19.658        0.72097          139.4        0.72097          139.4       0.024761         19.658
           4.5      0.026967          21.14         0.7176         123.72         0.7176         123.72       0.026967          21.14
          4.55      0.029336         21.432        0.71421         108.02        0.71421         108.02       0.029336         21.432
           4.6      0.031825         20.782         0.7108         92.292         0.7108         92.292       0.031825         20.782
          4.65      0.034423         19.262        0.70741         76.557        0.70741         76.557       0.034423         19.262
           4.7      0.037073         16.829        0.70412         60.822        0.70412         60.822       0.037073         16.829
          4.75      0.039617         13.435        0.70109         45.093        0.70109         45.093       0.039617         13.435
           4.8      0.041804         9.1235        0.69846         29.376        0.69846         29.376       0.041804         9.1235
          4.85      0.043344         4.0701         0.6964         13.669         0.6964         13.669       0.043344         4.0701
           4.9      0.043994        -1.4422        0.69502        -2.0332        0.69502        -2.0332       0.043994        -1.4422
          4.95      0.043628        -7.0649        0.69439        -17.739        0.69439        -17.739       0.043628        -7.0649
             5      0.042273        -12.427        0.69449        -33.458        0.69449        -33.458       0.042273        -12.427
          5.05      0.040099        -17.173        0.69524        -49.195        0.69524        -49.195       0.040099        -17.173
           5.1      0.037378         -20.99        0.69651        -64.951        0.69651        -64.951       0.037378         -20.99
          5.15      0.034418        -23.644        0.69816        -80.722        0.69816        -80.722       0.034418        -23.644
           5.2      0.031506        -25.003         0.7001        -96.501         0.7001        -96.501       0.031506        -25.003
          5.25       0.02886         -25.06        0.70224        -112.28        0.70224        -112.28        0.02886         -25.06
           5.3      0.026615        -23.929        0.70458        -128.04        0.70458        -128.04       0.026615        -23.929
          5.35      0.024823        -21.804        0.70711        -143.78        0.70711        -143.78       0.024823        -21.804
           5.4      0.023489        -18.891         0.7099        -159.49         0.7099        -159.49       0.023489        -18.891
          5.45      0.022618         -15.38        0.71295        -175.18        0.71295        -175.18       0.022618         -15.38
           5.5      0.022249        -11.537        0.71628         169.15        0.71628         169.15       0.022249        -11.537
          5.55      0.022428        -7.8435        0.71985          153.5        0.71985          153.5       0.022428        -7.8435
           5.6      0.023116        -4.9616        0.72355         137.86        0.72355         137.86       0.023116        -4.9616
          5.65      0.024122        -3.4391        0.72727         122.23        0.72727         122.23       0.024122        -3.4391
           5.7      0.025125        -3.4025        0.73089          106.6        0.73089          106.6       0.025125        -3.4025
          5.75      0.025781        -4.5096         0.7343          90.99         0.7343          90.99       0.025781        -4.5096
           5.8      0.025846        -6.0849        0.73739         75.392        0.73739         75.392       0.025846        -6.0849
          5.85      0.025271        -7.2625        0.74012         59.812        0.74012         59.812       0.025271        -7.2625
           5.9      0.024261        -7.1147        0.74248         44.253        0.74248         44.253       0.024261        -7.1147
          5.95      0.023282        -4.9277        0.74448         28.717        0.74448         28.717       0.023282        -4.9277
             6      0.022962       -0.80479        0.74612         13.199        0.74612         13.199       0.022962       -0.80479
          6.05      0.023802         3.8139        0.74743        -2.3022        0.74743        -2.3022       0.023802         3.8139
           6.1      0.025838         6.8678        0.74841        -17.794        0.74841        -17.794       0.025838         6.8678
          6.15       0.02861          7.175        0.74902        -33.283        0.74902        -33.283        0.02861          7.175
           6.2      0.031444         4.7836        0.74922        -48.775        0.74922        -48.775       0.031444         4.7836
          6.25      0.033707        0.34349        0.74896        -64.274        0.74896        -64.274       0.033707        0.34349
           6.3      0.034909        -5.3905        0.74819        -79.782        0.74819        -79.782       0.034909        -5.3905
          6.35      0.034754        -11.704        0.74688        -95.301        0.74688        -95.301       0.034754        -11.704
           6.4      0.033146        -17.887          0.745        -110.83          0.745        -110.83       0.033146        -17.887
          6.45      0.030206        -23.119        0.74258        -126.37        0.74258        -126.37       0.030206        -23.119
           6.5      0.026281        -26.264        0.73966        -141.92        0.73966        -141.92       0.026281        -26.264
          6.55      0.021987        -25.576        0.73633        -157.47        0.73633        -157.47       0.021987        -25.576
           6.6      0.018318         -18.69        0.73265        -173.05        0.73265        -173.05       0.018318         -18.69
          6.65      0.016657        -4.9809        0.72872         171.37        0.72872         171.37       0.016657        -4.9809
           6.7      0.017936         9.7219        0.72459         155.75        0.72459         155.75       0.017936         9.7219
          6.75      0.021561          18.65         0.7203         140.11         0.7203         140.11       0.021561          18.65
           6.8      0.026328         21.542        0.71586         124.44        0.71586         124.44       0.026328         21.542
          6.85      0.031435         20.576        0.71127         108.73        0.71127         108.73       0.031435         20.576
           6.9      0.036489         17.351        0.70654         92.995        0.70654         92.995       0.036489         17.351
          6.95      0.041308         12.718        0.70172         77.233        0.70172         77.233       0.041308         12.718
             7      0.045786         7.0715        0.69687         61.455        0.69687         61.455       0.045786         7.0715
          7.05      0.049804         0.5709        0.69215         45.672        0.69215         45.672       0.049804         0.5709
           7.1      0.053181        -6.7194        0.68773          29.89        0.68773          29.89       0.053181        -6.7194
          7.15      0.055674        -14.745        0.68384         14.114        0.68384         14.114       0.055674        -14.745
           7.2      0.057007        -23.415        0.68068        -1.6566        0.68068        -1.6566       0.057007        -23.415
          7.25      0.056938        -32.589        0.67843        -17.426        0.67843        -17.426       0.056938        -32.589
           7.3      0.055319        -42.072        0.67723        -33.203        0.67723        -33.203       0.055319        -42.072
          7.35      0.052139        -51.616        0.67714        -48.996        0.67714        -48.996       0.052139        -51.616
           7.4      0.047548         -60.91        0.67815        -64.812        0.67815        -64.812       0.047548         -60.91
          7.45      0.041845        -69.538         0.6802        -80.654         0.6802        -80.654       0.041845        -69.538
           7.5      0.035464        -76.902        0.68321         -96.52        0.68321         -96.52       0.035464        -76.902
          7.55      0.028953        -82.074        0.68706         -112.4        0.68706         -112.4       0.028953        -82.074
           7.6      0.022984        -83.631         0.6917         -128.3         0.6917         -128.3       0.022984        -83.631
          7.65      0.018377        -79.896        0.69706        -144.18        0.69706        -144.18       0.018377        -79.896
           7.7      0.015959        -71.099        0.70311        -160.06        0.70311        -160.06       0.015959        -71.099
          7.75      0.015906        -62.224        0.70982        -175.92        0.70982        -175.92       0.015906        -62.224
           7.8      0.017363        -58.557        0.71717         168.26        0.71717         168.26       0.017363        -58.557
          7.85      0.019277        -60.735        0.72511         152.46        0.72511         152.46       0.019277        -60.735
           7.9      0.021033        -67.365        0.73357          136.7        0.73357          136.7       0.021033        -67.365
          7.95      0.022406        -77.338        0.74247         120.97        0.74247         120.97       0.022406        -77.338
             8      0.023409        -90.112        0.75166         105.27        0.75166         105.27       0.023409        -90.112
          8.05        0.0242        -105.46        0.76103          89.62        0.76103          89.62         0.0242        -105.46
           8.1      0.025049        -123.18        0.77041         74.006        0.77041         74.006       0.025049        -123.18
          8.15      0.026282         -142.8        0.77966         58.436        0.77966         58.436       0.026282         -142.8
           8.2      0.028183        -163.45        0.78862         42.911        0.78862         42.911       0.028183        -163.45
          8.25      0.030868         175.91        0.79715         27.437        0.79715         27.437       0.030868         175.91
           8.3      0.034213         156.15        0.80514         12.015        0.80514         12.015       0.034213         156.15
