! Created Mon May 20 11:16:08 2013
# ghz S ma R 50
! 2 Port Network Data from SP1.SP block
! freq  magS11  angS11  magS21  angS21  magS12  angS12  magS22  angS22  
!     
             1      0.044199        -50.172       0.064406          42.93       0.064406          42.93       0.044199        -50.172
          1.05      0.042687        -54.659       0.063514         23.203       0.063514         23.203       0.042687        -54.659
           1.1        0.0419        -59.862       0.061744         4.0672       0.061744         4.0672         0.0419        -59.862
          1.15      0.041447        -66.544       0.059201        -14.485       0.059201        -14.485       0.041447        -66.544
           1.2      0.040828        -75.072       0.056013        -32.436       0.056013        -32.436       0.040828        -75.072
          1.25      0.039642          -85.5        0.05233        -49.746        0.05233        -49.746       0.039642          -85.5
           1.3      0.037688        -97.752       0.048322        -66.351       0.048322        -66.351       0.037688        -97.752
          1.35      0.034988        -111.76       0.044178        -82.174       0.044178        -82.174       0.034988        -111.76
           1.4      0.031752        -127.53       0.040098        -97.141       0.040098        -97.141       0.031752        -127.53
          1.45       0.02832        -145.06       0.036282        -111.23       0.036282        -111.23        0.02832        -145.06
           1.5       0.02509        -164.29       0.032906        -124.54       0.032906        -124.54        0.02509        -164.29
          1.55       0.02241         175.24       0.030079        -137.35       0.030079        -137.35        0.02241         175.24
           1.6      0.020463         154.54       0.027811         -150.2       0.027811         -150.2       0.020463         154.54
          1.65      0.019199         135.06       0.025987        -163.77       0.025987        -163.77       0.019199         135.06
           1.7      0.018398         118.16       0.024404        -178.77       0.024404        -178.77       0.018398         118.16
          1.75      0.017825         104.67       0.022829         164.14       0.022829         164.14       0.017825         104.67
           1.8      0.017355         94.919       0.021091         144.29       0.021091         144.29       0.017355         94.919
          1.85      0.017016         88.894       0.019161         120.83       0.019161         120.83       0.017016         88.894
           1.9      0.016957         86.297       0.017265         92.564       0.017265         92.564       0.016957         86.297
          1.95      0.017412          86.47          0.016         58.402          0.016         58.402       0.017412          86.47
             2      0.018648         88.319        0.01628         19.571        0.01628         19.571       0.018648         88.319
          2.05      0.020918         90.427        0.01873        -19.028        0.01873        -19.028       0.020918         90.427
           2.1      0.024385         91.457       0.023132        -53.423       0.023132        -53.423       0.024385         91.457
          2.15      0.029077         90.562       0.028817        -83.471       0.028817        -83.471       0.029077         90.562
           2.2      0.034851         87.481       0.035158         -110.5       0.035158         -110.5       0.034851         87.481
          2.25      0.041411          82.37       0.041663        -135.65       0.041663        -135.65       0.041411          82.37
           2.3      0.048328         75.566       0.047939        -159.65       0.047939        -159.65       0.048328         75.566
          2.35      0.055087         67.453        0.05366         177.05        0.05366         177.05       0.055087         67.453
           2.4      0.061141         58.395       0.058558         154.19       0.058558         154.19       0.061141         58.395
          2.45      0.065981         48.723       0.062418         131.56       0.062418         131.56       0.065981         48.723
           2.5      0.069201          38.73       0.065074         109.06       0.065074         109.06       0.069201          38.73
          2.55      0.070551         28.681       0.066416         86.566       0.066416         86.566       0.070551         28.681
           2.6      0.069966         18.815       0.066384         63.988       0.066384         63.988       0.069966         18.815
          2.65       0.06756         9.3485       0.064967         41.232       0.064967         41.232        0.06756         9.3485
           2.7      0.063591        0.48315       0.062212          18.19       0.062212          18.19       0.063591        0.48315
          2.75       0.05841        -7.5905       0.058216        -5.2725       0.058216        -5.2725        0.05841        -7.5905
           2.8      0.052397        -14.675       0.053136        -29.339       0.053136        -29.339       0.052397        -14.675
          2.85       0.04592         -20.53        0.04719        -54.286        0.04719        -54.286        0.04592         -20.53
           2.9      0.039314        -24.814       0.040665        -80.556       0.040665        -80.556       0.039314        -24.814
          2.95      0.032895        -26.972       0.033939        -108.89       0.033939        -108.89       0.032895        -26.972
             3       0.02701        -26.074       0.027534        -140.55       0.027534        -140.55        0.02701        -26.074
          3.05      0.022152        -20.727       0.022214        -177.34       0.022214        -177.34       0.022152        -20.727
           3.1      0.019077        -9.8807       0.019029          139.7       0.019029          139.7       0.019077        -9.8807
          3.15      0.018589         4.2562        0.01877          94.09        0.01877          94.09       0.018589         4.2562
           3.2      0.020705         15.761       0.020966         52.352       0.020966         52.352       0.020705         15.761
          3.25      0.024465         21.349       0.024315         16.474       0.024315         16.474       0.024465         21.349
           3.3      0.028758         21.821       0.027779        -15.116       0.027779        -15.116       0.028758         21.821
          3.35      0.032742         18.908       0.030784        -44.156       0.030784        -44.156       0.032742         18.908
           3.4      0.035825         13.973       0.033048        -71.794       0.033048        -71.794       0.035825         13.973
          3.45      0.037624         7.9826       0.034459        -98.745       0.034459        -98.745       0.037624         7.9826
           3.5      0.037956         1.6835       0.035008        -125.49       0.035008        -125.49       0.037956         1.6835
          3.55      0.036848        -4.2636       0.034763        -152.37       0.034763        -152.37       0.036848        -4.2636
           3.6      0.034538        -9.1821       0.033845        -179.69       0.033845        -179.69       0.034538        -9.1821
          3.65      0.031462         -12.32       0.032424         152.29       0.032424         152.29       0.031462         -12.32
           3.7      0.028246        -12.911       0.030703         123.36       0.030703         123.36       0.028246        -12.911
          3.75      0.025628        -10.559       0.028902         93.342       0.028902         93.342       0.025628        -10.559
           3.8      0.024244        -6.0135       0.027239         62.204       0.027239         62.204       0.024244        -6.0135
          3.85      0.024262        -1.3674       0.025889         30.088       0.025889         30.088       0.024262        -1.3674
           3.9      0.025229         1.3922       0.024948        -2.6645       0.024948        -2.6645       0.025229         1.3922
          3.95      0.026398         1.7317       0.024408        -35.604       0.024408        -35.604       0.026398         1.7317
             4      0.027126        0.27566       0.024166        -68.343       0.024166        -68.343       0.027126        0.27566
          4.05      0.027061        -1.9556       0.024068         -100.7       0.024068         -100.7       0.027061        -1.9556
           4.1      0.026154        -3.9092        0.02396        -132.72        0.02396        -132.72       0.026154        -3.9092
          4.15      0.024633        -4.5961       0.023738        -164.65       0.023738        -164.65       0.024633        -4.5961
           4.2       0.02293        -3.2038       0.023373         163.15       0.023373         163.15        0.02293        -3.2038
          4.25      0.021582        0.58105        0.02293          130.3        0.02293          130.3       0.021582        0.58105
           4.3      0.021052         6.1286       0.022564         96.531       0.022564         96.531       0.021052         6.1286
          4.35      0.021525         11.949       0.022504           61.8       0.022504           61.8       0.021525         11.949
           4.4       0.02286         16.642       0.022987          26.49       0.022987          26.49        0.02286         16.642
          4.45      0.024761         19.658       0.024173        -8.6513       0.024173        -8.6513       0.024761         19.658
           4.5      0.026967          21.14       0.026071         -42.82       0.026071         -42.82       0.026967          21.14
          4.55      0.029336         21.432       0.028542        -75.511       0.028542        -75.511       0.029336         21.432
           4.6      0.031825         20.782       0.031355        -106.62       0.031355        -106.62       0.031825         20.782
          4.65      0.034423         19.262       0.034249        -136.29       0.034249        -136.29       0.034423         19.262
           4.7      0.037073         16.829       0.036979        -164.82       0.036979        -164.82       0.037073         16.829
          4.75      0.039617         13.435       0.039334         167.54       0.039334         167.54       0.039617         13.435
           4.8      0.041804         9.1235       0.041148          140.5       0.041148          140.5       0.041804         9.1235
          4.85      0.043344         4.0701       0.042301         113.86       0.042301         113.86       0.043344         4.0701
           4.9      0.043994        -1.4422        0.04272         87.404        0.04272         87.404       0.043994        -1.4422
          4.95      0.043628        -7.0649       0.042382          60.95       0.042382          60.95       0.043628        -7.0649
             5      0.042273        -12.427       0.041311         34.308       0.041311         34.308       0.042273        -12.427
          5.05      0.040099        -17.173       0.039578         7.2798       0.039578         7.2798       0.040099        -17.173
           5.1      0.037378         -20.99       0.037302        -20.354       0.037302        -20.354       0.037378         -20.99
          5.15      0.034418        -23.644       0.034648         -48.84       0.034648         -48.84       0.034418        -23.644
           5.2      0.031506        -25.003       0.031822        -78.443       0.031822        -78.443       0.031506        -25.003
          5.25       0.02886         -25.06       0.029061        -109.41       0.029061        -109.41        0.02886         -25.06
           5.3      0.026615        -23.929       0.026617        -141.88       0.026617        -141.88       0.026615        -23.929
          5.35      0.024823        -21.804       0.024711        -175.76       0.024711        -175.76       0.024823        -21.804
           5.4      0.023489        -18.891       0.023477         149.44       0.023477         149.44       0.023489        -18.891
          5.45      0.022618         -15.38       0.022909         114.43       0.022909         114.43       0.022618         -15.38
           5.5      0.022249        -11.537        0.02286          79.92        0.02286          79.92       0.022249        -11.537
          5.55      0.022428        -7.8435       0.023104         46.284       0.023104         46.284       0.022428        -7.8435
           5.6      0.023116        -4.9616       0.023423         13.523       0.023423         13.523       0.023116        -4.9616
          5.65      0.024122        -3.4391        0.02366        -18.613        0.02366        -18.613       0.024122        -3.4391
           5.7      0.025125        -3.4025       0.023746        -50.475       0.023746        -50.475       0.025125        -3.4025
          5.75      0.025781        -4.5096       0.023696        -82.408       0.023696        -82.408       0.025781        -4.5096
           5.8      0.025846        -6.0849       0.023605        -114.67       0.023605        -114.67       0.025846        -6.0849
          5.85      0.025271        -7.2625       0.023613        -147.35       0.023613        -147.35       0.025271        -7.2625
           5.9      0.024261        -7.1147       0.023869         179.69       0.023869         179.69       0.024261        -7.1147
          5.95      0.023282        -4.9277       0.024481          146.8       0.024481          146.8       0.023282        -4.9277
             6      0.022962       -0.80479        0.02547         114.43        0.02547         114.43       0.022962       -0.80479
          6.05      0.023802         3.8139       0.026758         82.958       0.026758         82.958       0.023802         3.8139
           6.1      0.025838         6.8678       0.028187         52.573       0.028187         52.573       0.025838         6.8678
          6.15       0.02861          7.175        0.02956         23.269        0.02956         23.269        0.02861          7.175
           6.2      0.031444         4.7836       0.030672        -5.0998       0.030672        -5.0998       0.031444         4.7836
          6.25      0.033707        0.34349       0.031341        -32.756       0.031341        -32.756       0.033707        0.34349
           6.3      0.034909        -5.3905        0.03142        -59.969        0.03142        -59.969       0.034909        -5.3905
          6.35      0.034754        -11.704       0.030808         -87.05       0.030808         -87.05       0.034754        -11.704
           6.4      0.033146        -17.887       0.029461        -114.38       0.029461        -114.38       0.033146        -17.887
          6.45      0.030206        -23.119       0.027408        -142.46       0.027408        -142.46       0.030206        -23.119
           6.5      0.026281        -26.264       0.024779        -172.03       0.024779        -172.03       0.026281        -26.264
          6.55      0.021987        -25.576       0.021863         155.79       0.021863         155.79       0.021987        -25.576
           6.6      0.018318         -18.69       0.019204         119.53       0.019204         119.53       0.018318         -18.69
          6.65      0.016657        -4.9809       0.017681         78.328       0.017681         78.328       0.016657        -4.9809
           6.7      0.017936         9.7219       0.018229         34.649       0.018229         34.649       0.017936         9.7219
          6.75      0.021561          18.65       0.021056        -6.2875       0.021056        -6.2875       0.021561          18.65
           6.8      0.026328         21.542       0.025509        -41.978       0.025509        -41.978       0.026328         21.542
          6.85      0.031435         20.576       0.030771        -73.222       0.030771        -73.222       0.031435         20.576
           6.9      0.036489         17.351       0.036218        -101.47       0.036218        -101.47       0.036489         17.351
          6.95      0.041308         12.718       0.041406        -127.78       0.041406        -127.78       0.041308         12.718
             7      0.045786         7.0715       0.046006        -152.82       0.046006        -152.82       0.045786         7.0715
          7.05      0.049804         0.5709        0.04977        -177.03        0.04977        -177.03       0.049804         0.5709
           7.1      0.053181        -6.7194       0.052513         159.34       0.052513         159.34       0.053181        -6.7194
          7.15      0.055674        -14.745       0.054105         136.09       0.054105         136.09       0.055674        -14.745
           7.2      0.057007        -23.415       0.054476         113.08       0.054476         113.08       0.057007        -23.415
          7.25      0.056938        -32.589       0.053609         90.175       0.053609         90.175       0.056938        -32.589
           7.3      0.055319        -42.072       0.051539         67.261       0.051539         67.261       0.055319        -42.072
          7.35      0.052139        -51.616       0.048357         44.189       0.048357         44.189       0.052139        -51.616
           7.4      0.047548         -60.91       0.044206         20.771       0.044206         20.771       0.047548         -60.91
          7.45      0.041845        -69.538       0.039284        -3.2653       0.039284        -3.2653       0.041845        -69.538
           7.5      0.035464        -76.902       0.033854         -28.35       0.033854         -28.35       0.035464        -76.902
          7.55      0.028953        -82.074       0.028257        -55.198       0.028257        -55.198       0.028953        -82.074
           7.6      0.022984        -83.631       0.022955        -84.987       0.022955        -84.987       0.022984        -83.631
          7.65      0.018377        -79.896       0.018594        -119.34       0.018594        -119.34       0.018377        -79.896
           7.7      0.015959        -71.099       0.016001         -158.9       0.016001         -158.9       0.015959        -71.099
          7.75      0.015906        -62.224       0.015718         159.93       0.015718         159.93       0.015906        -62.224
           7.8      0.017363        -58.557       0.017306         123.16       0.017306         123.16       0.017363        -58.557
          7.85      0.019277        -60.735       0.019755         92.749       0.019755         92.749       0.019277        -60.735
           7.9      0.021033        -67.365       0.022297         67.456       0.022297         67.456       0.021033        -67.365
          7.95      0.022406        -77.338       0.024569         45.868       0.024569         45.868       0.022406        -77.338
             8      0.023409        -90.112       0.026492         27.079       0.026492         27.079       0.023409        -90.112
          8.05        0.0242        -105.46       0.028172         10.527       0.028172         10.527         0.0242        -105.46
           8.1      0.025049        -123.18       0.029831        -4.2463       0.029831        -4.2463       0.025049        -123.18
          8.15      0.026282         -142.8       0.031741        -17.765       0.031741        -17.765       0.026282         -142.8
           8.2      0.028183        -163.45       0.034139        -30.659       0.034139        -30.659       0.028183        -163.45
          8.25      0.030868         175.91       0.037155        -43.572       0.037155        -43.572       0.030868         175.91
           8.3      0.034213         156.15       0.040774         -57.01       0.040774         -57.01       0.034213         156.15
