! Created Mon May 20 11:15:44 2013
# ghz S ma R 50
! 2 Port Network Data from SP1.SP block
! freq  magS11  angS11  magS21  angS21  magS12  angS12  magS22  angS22  
!     
             1      0.044199        -50.172        0.56398         41.936        0.56398         41.936       0.044199        -50.172
          1.05      0.042687        -54.659          0.553         26.892          0.553         26.892       0.042687        -54.659
           1.1        0.0419        -59.862        0.54428         11.878        0.54428         11.878         0.0419        -59.862
          1.15      0.041447        -66.544         0.5378        -3.1101         0.5378        -3.1101       0.041447        -66.544
           1.2      0.040828        -75.072        0.53355        -18.082        0.53355        -18.082       0.040828        -75.072
          1.25      0.039642          -85.5        0.53148        -33.051        0.53148        -33.051       0.039642          -85.5
           1.3      0.037688        -97.752        0.53151        -48.028        0.53151        -48.028       0.037688        -97.752
          1.35      0.034988        -111.76         0.5335        -63.027         0.5335        -63.027       0.034988        -111.76
           1.4      0.031752        -127.53        0.53731         -78.06        0.53731         -78.06       0.031752        -127.53
          1.45       0.02832        -145.06        0.54275        -93.136        0.54275        -93.136        0.02832        -145.06
           1.5       0.02509        -164.29        0.54962        -108.26        0.54962        -108.26        0.02509        -164.29
          1.55       0.02241         175.24        0.55773        -123.44        0.55773        -123.44        0.02241         175.24
           1.6      0.020463         154.54        0.56688        -138.67        0.56688        -138.67       0.020463         154.54
          1.65      0.019199         135.06        0.57689        -153.96        0.57689        -153.96       0.019199         135.06
           1.7      0.018398         118.16        0.58755        -169.31        0.58755        -169.31       0.018398         118.16
          1.75      0.017825         104.67        0.59868         175.28        0.59868         175.28       0.017825         104.67
           1.8      0.017355         94.919        0.61008         159.82        0.61008         159.82       0.017355         94.919
          1.85      0.017016         88.894        0.62159         144.31        0.62159         144.31       0.017016         88.894
           1.9      0.016957         86.297        0.63302         128.74        0.63302         128.74       0.016957         86.297
          1.95      0.017412          86.47        0.64422         113.13        0.64422         113.13       0.017412          86.47
             2      0.018648         88.319        0.65507         97.486        0.65507         97.486       0.018648         88.319
          2.05      0.020918         90.427        0.66546         81.801        0.66546         81.801       0.020918         90.427
           2.1      0.024385         91.457        0.67531         66.083        0.67531         66.083       0.024385         91.457
          2.15      0.029077         90.562        0.68454         50.334        0.68454         50.334       0.029077         90.562
           2.2      0.034851         87.481        0.69308         34.555        0.69308         34.555       0.034851         87.481
          2.25      0.041411          82.37        0.70085         18.748        0.70085         18.748       0.041411          82.37
           2.3      0.048328         75.566        0.70778         2.9153        0.70778         2.9153       0.048328         75.566
          2.35      0.055087         67.453        0.71377         -12.94        0.71377         -12.94       0.055087         67.453
           2.4      0.061141         58.395        0.71876        -28.813        0.71876        -28.813       0.061141         58.395
          2.45      0.065981         48.723        0.72272        -44.696        0.72272        -44.696       0.065981         48.723
           2.5      0.069201          38.73        0.72563        -60.582        0.72563        -60.582       0.069201          38.73
          2.55      0.070551         28.681        0.72751        -76.461        0.72751        -76.461       0.070551         28.681
           2.6      0.069966         18.815        0.72843        -92.328        0.72843        -92.328       0.069966         18.815
          2.65       0.06756         9.3485        0.72849        -108.18        0.72849        -108.18        0.06756         9.3485
           2.7      0.063591        0.48315        0.72781           -124        0.72781           -124       0.063591        0.48315
          2.75       0.05841        -7.5905        0.72651        -139.81        0.72651        -139.81        0.05841        -7.5905
           2.8      0.052397        -14.675        0.72472        -155.59        0.72472        -155.59       0.052397        -14.675
          2.85       0.04592         -20.53        0.72251        -171.36        0.72251        -171.36        0.04592         -20.53
           2.9      0.039314        -24.814        0.71996         172.88        0.71996         172.88       0.039314        -24.814
          2.95      0.032895        -26.972        0.71707         157.12        0.71707         157.12       0.032895        -26.972
             3       0.02701        -26.074        0.71382         141.36        0.71382         141.36        0.02701        -26.074
          3.05      0.022152        -20.727        0.71016          125.6        0.71016          125.6       0.022152        -20.727
           3.1      0.019077        -9.8807        0.70609         109.85        0.70609         109.85       0.019077        -9.8807
          3.15      0.018589         4.2562         0.7016         94.108         0.7016         94.108       0.018589         4.2562
           3.2      0.020705         15.761        0.69678          78.39        0.69678          78.39       0.020705         15.761
          3.25      0.024465         21.349        0.69173         62.705        0.69173         62.705       0.024465         21.349
           3.3      0.028758         21.821        0.68664         47.059        0.68664         47.059       0.028758         21.821
          3.35      0.032742         18.908        0.68171         31.455        0.68171         31.455       0.032742         18.908
           3.4      0.035825         13.973        0.67712         15.888        0.67712         15.888       0.035825         13.973
          3.45      0.037624         7.9826        0.67303        0.35011        0.67303        0.35011       0.037624         7.9826
           3.5      0.037956         1.6835        0.66954         -15.17        0.66954         -15.17       0.037956         1.6835
          3.55      0.036848        -4.2636        0.66666        -30.684        0.66666        -30.684       0.036848        -4.2636
           3.6      0.034538        -9.1821        0.66435        -46.202        0.66435        -46.202       0.034538        -9.1821
          3.65      0.031462         -12.32        0.66256        -61.727        0.66256        -61.727       0.031462         -12.32
           3.7      0.028246        -12.911        0.66119        -77.261        0.66119        -77.261       0.028246        -12.911
          3.75      0.025628        -10.559         0.6602        -92.798         0.6602        -92.798       0.025628        -10.559
           3.8      0.024244        -6.0135        0.65957        -108.33        0.65957        -108.33       0.024244        -6.0135
          3.85      0.024262        -1.3674        0.65934        -123.86        0.65934        -123.86       0.024262        -1.3674
           3.9      0.025229         1.3922        0.65957        -139.37        0.65957        -139.37       0.025229         1.3922
          3.95      0.026398         1.7317        0.66034        -154.88        0.66034        -154.88       0.026398         1.7317
             4      0.027126        0.27566         0.6617        -170.37         0.6617        -170.37       0.027126        0.27566
          4.05      0.027061        -1.9556        0.66369         174.12        0.66369         174.12       0.027061        -1.9556
           4.1      0.026154        -3.9092        0.66625          158.6        0.66625          158.6       0.026154        -3.9092
          4.15      0.024633        -4.5961        0.66929         143.06        0.66929         143.06       0.024633        -4.5961
           4.2       0.02293        -3.2038        0.67267          127.5        0.67267          127.5        0.02293        -3.2038
          4.25      0.021582        0.58105        0.67624          111.9        0.67624          111.9       0.021582        0.58105
           4.3      0.021052         6.1286        0.67987         96.279        0.67987         96.279       0.021052         6.1286
          4.35      0.021525         11.949        0.68346         80.641        0.68346         80.641       0.021525         11.949
           4.4       0.02286         16.642        0.68695         64.993        0.68695         64.993        0.02286         16.642
          4.45      0.024761         19.658        0.69035          49.34        0.69035          49.34       0.024761         19.658
           4.5      0.026967          21.14        0.69368         33.685        0.69368         33.685       0.026967          21.14
          4.55      0.029336         21.432        0.69695         18.026        0.69695         18.026       0.029336         21.432
           4.6      0.031825         20.782        0.70018         2.3595        0.70018         2.3595       0.031825         20.782
          4.65      0.034423         19.262        0.70333        -13.322        0.70333        -13.322       0.034423         19.262
           4.7      0.037073         16.829        0.70633        -29.023        0.70633        -29.023       0.037073         16.829
          4.75      0.039617         13.435        0.70906        -44.747        0.70906        -44.747       0.039617         13.435
           4.8      0.041804         9.1235         0.7114        -60.494         0.7114        -60.494       0.041804         9.1235
          4.85      0.043344         4.0701        0.71324         -76.26        0.71324         -76.26       0.043344         4.0701
           4.9      0.043994        -1.4422        0.71449        -92.038        0.71449        -92.038       0.043994        -1.4422
          4.95      0.043628        -7.0649        0.71513        -107.82        0.71513        -107.82       0.043628        -7.0649
             5      0.042273        -12.427        0.71516         -123.6        0.71516         -123.6       0.042273        -12.427
          5.05      0.040099        -17.173        0.71463        -139.36        0.71463        -139.36       0.040099        -17.173
           5.1      0.037378         -20.99        0.71365        -155.11        0.71365        -155.11       0.037378         -20.99
          5.15      0.034418        -23.644        0.71229        -170.85        0.71229        -170.85       0.034418        -23.644
           5.2      0.031506        -25.003        0.71064         173.43        0.71064         173.43       0.031506        -25.003
          5.25       0.02886         -25.06        0.70873         157.72        0.70873         157.72        0.02886         -25.06
           5.3      0.026615        -23.929        0.70658            142        0.70658            142       0.026615        -23.929
          5.35      0.024823        -21.804        0.70416         126.29        0.70416         126.29       0.024823        -21.804
           5.4      0.023489        -18.891        0.70142         110.57        0.70142         110.57       0.023489        -18.891
          5.45      0.022618         -15.38        0.69835         94.859        0.69835         94.859       0.022618         -15.38
           5.5      0.022249        -11.537        0.69493         79.155        0.69493         79.155       0.022249        -11.537
          5.55      0.022428        -7.8435        0.69121         63.467        0.69121         63.467       0.022428        -7.8435
           5.6      0.023116        -4.9616        0.68728         47.802        0.68728         47.802       0.023116        -4.9616
          5.65      0.024122        -3.4391        0.68327         32.166        0.68327         32.166       0.024122        -3.4391
           5.7      0.025125        -3.4025        0.67934         16.559        0.67934         16.559       0.025125        -3.4025
          5.75      0.025781        -4.5096        0.67562        0.97819        0.67562        0.97819       0.025781        -4.5096
           5.8      0.025846        -6.0849        0.67223        -14.583        0.67223        -14.583       0.025846        -6.0849
          5.85      0.025271        -7.2625        0.66922        -30.133        0.66922        -30.133       0.025271        -7.2625
           5.9      0.024261        -7.1147        0.66661        -45.678        0.66661        -45.678       0.024261        -7.1147
          5.95      0.023282        -4.9277        0.66438        -61.223        0.66438        -61.223       0.023282        -4.9277
             6      0.022962       -0.80479        0.66249         -76.77        0.66249         -76.77       0.022962       -0.80479
          6.05      0.023802         3.8139        0.66091        -92.315        0.66091        -92.315       0.023802         3.8139
           6.1      0.025838         6.8678        0.65965        -107.85        0.65965        -107.85       0.025838         6.8678
          6.15       0.02861          7.175        0.65877        -123.38        0.65877        -123.38        0.02861          7.175
           6.2      0.031444         4.7836        0.65833        -138.89        0.65833        -138.89       0.031444         4.7836
          6.25      0.033707        0.34349        0.65846        -154.38        0.65846        -154.38       0.033707        0.34349
           6.3      0.034909        -5.3905        0.65925        -169.86        0.65925        -169.86       0.034909        -5.3905
          6.35      0.034754        -11.704        0.66076         174.67        0.66076         174.67       0.034754        -11.704
           6.4      0.033146        -17.887          0.663         159.18          0.663         159.18       0.033146        -17.887
          6.45      0.030206        -23.119        0.66591         143.68        0.66591         143.68       0.030206        -23.119
           6.5      0.026281        -26.264        0.66939         128.14        0.66939         128.14       0.026281        -26.264
          6.55      0.021987        -25.576        0.67329         112.58        0.67329         112.58       0.021987        -25.576
           6.6      0.018318         -18.69        0.67745         96.981        0.67745         96.981       0.018318         -18.69
          6.65      0.016657        -4.9809        0.68174         81.358        0.68174         81.358       0.016657        -4.9809
           6.7      0.017936         9.7219        0.68606         65.716        0.68606         65.716       0.017936         9.7219
          6.75      0.021561          18.65        0.69035         50.061        0.69035         50.061       0.021561          18.65
           6.8      0.026328         21.542        0.69462           34.4        0.69462           34.4       0.026328         21.542
          6.85      0.031435         20.576        0.69887         18.735        0.69887         18.735       0.031435         20.576
           6.9      0.036489         17.351        0.70313         3.0628        0.70313         3.0628       0.036489         17.351
          6.95      0.041308         12.718        0.70738         -12.62        0.70738         -12.62       0.041308         12.718
             7      0.045786         7.0715        0.71157        -28.322        0.71157        -28.322       0.045786         7.0715
          7.05      0.049804         0.5709        0.71562        -44.047        0.71562        -44.047       0.049804         0.5709
           7.1      0.053181        -6.7194        0.71941        -59.801        0.71941        -59.801       0.053181        -6.7194
          7.15      0.055674        -14.745        0.72279        -75.585        0.72279        -75.585       0.055674        -14.745
           7.2      0.057007        -23.415        0.72561        -91.398        0.72561        -91.398       0.057007        -23.415
          7.25      0.056938        -32.589        0.72776        -107.24        0.72776        -107.24       0.056938        -32.589
           7.3      0.055319        -42.072        0.72913        -123.09        0.72913        -123.09       0.055319        -42.072
          7.35      0.052139        -51.616        0.72964        -138.97        0.72964        -138.97       0.052139        -51.616
           7.4      0.047548         -60.91        0.72926        -154.85        0.72926        -154.85       0.047548         -60.91
          7.45      0.041845        -69.538        0.72796        -170.73        0.72796        -170.73       0.041845        -69.538
           7.5      0.035464        -76.902        0.72574         173.39        0.72574         173.39       0.035464        -76.902
          7.55      0.028953        -82.074        0.72259         157.52        0.72259         157.52       0.028953        -82.074
           7.6      0.022984        -83.631        0.71854         141.65        0.71854         141.65       0.022984        -83.631
          7.65      0.018377        -79.896        0.71359         125.79        0.71359         125.79       0.018377        -79.896
           7.7      0.015959        -71.099        0.70774         109.95        0.70774         109.95       0.015959        -71.099
          7.75      0.015906        -62.224          0.701         94.114          0.701         94.114       0.015906        -62.224
           7.8      0.017363        -58.557        0.69339           78.3        0.69339           78.3       0.017363        -58.557
          7.85      0.019277        -60.735        0.68495         62.509        0.68495         62.509       0.019277        -60.735
           7.9      0.021033        -67.365        0.67573         46.746        0.67573         46.746       0.021033        -67.365
          7.95      0.022406        -77.338        0.66581         31.015        0.66581         31.015       0.022406        -77.338
             8      0.023409        -90.112        0.65529         15.321        0.65529         15.321       0.023409        -90.112
          8.05        0.0242        -105.46        0.64427       -0.33114        0.64427       -0.33114         0.0242        -105.46
           8.1      0.025049        -123.18        0.63291        -15.937        0.63291        -15.937       0.025049        -123.18
          8.15      0.026282         -142.8        0.62132        -31.494        0.62132        -31.494       0.026282         -142.8
           8.2      0.028183        -163.45        0.60968        -46.997        0.60968        -46.997       0.028183        -163.45
          8.25      0.030868         175.91        0.59816        -62.443        0.59816        -62.443       0.030868         175.91
           8.3      0.034213         156.15        0.58694         -77.83        0.58694         -77.83       0.034213         156.15
