CITIFILE A.01.01
#Momentum: B.08.60.277 (*) 351.200 Jul 12 2009 
#Momentum Date and Time: Tue Jul 14 11:57:31 2009

NAME PortSet1/TwoP0_Dsolver_data/first_odd_mode_is_1/most_even_mode_is_1/PMLG4/LS0

CONSTANT NBR_OF_PORTS 4

VAR freq MAG 6

DATA GAMMA_1[1] RI
DATA GAMMA_1[2] RI
DATA GAMMA_1[3] RI
DATA GAMMA_1[4] RI
DATA Z0_1[1,1] RI
DATA Z0_1[1,2] RI
DATA Z0_1[1,3] RI
DATA Z0_1[1,4] RI
DATA Z0_1[2,1] RI
DATA Z0_1[2,2] RI
DATA Z0_1[2,3] RI
DATA Z0_1[2,4] RI
DATA Z0_1[3,1] RI
DATA Z0_1[3,2] RI
DATA Z0_1[3,3] RI
DATA Z0_1[3,4] RI
DATA Z0_1[4,1] RI
DATA Z0_1[4,2] RI
DATA Z0_1[4,3] RI
DATA Z0_1[4,4] RI
DATA LAMBADAI_1[1,1] RI
DATA LAMBADAI_1[1,2] RI
DATA LAMBADAI_1[1,3] RI
DATA LAMBADAI_1[1,4] RI
DATA LAMBADAI_1[2,1] RI
DATA LAMBADAI_1[2,2] RI
DATA LAMBADAI_1[2,3] RI
DATA LAMBADAI_1[2,4] RI
DATA LAMBADAI_1[3,1] RI
DATA LAMBADAI_1[3,2] RI
DATA LAMBADAI_1[3,3] RI
DATA LAMBADAI_1[3,4] RI
DATA LAMBADAI_1[4,1] RI
DATA LAMBADAI_1[4,2] RI
DATA LAMBADAI_1[4,3] RI
DATA LAMBADAI_1[4,4] RI
DATA Zcir_1[1,1] RI
DATA Zcir_1[1,2] RI
DATA Zcir_1[1,3] RI
DATA Zcir_1[1,4] RI
DATA Zcir_1[2,1] RI
DATA Zcir_1[2,2] RI
DATA Zcir_1[2,3] RI
DATA Zcir_1[2,4] RI
DATA Zcir_1[3,1] RI
DATA Zcir_1[3,2] RI
DATA Zcir_1[3,3] RI
DATA Zcir_1[3,4] RI
DATA Zcir_1[4,1] RI
DATA Zcir_1[4,2] RI
DATA Zcir_1[4,3] RI
DATA Zcir_1[4,4] RI
DATA Ycir_1[1,1] RI
DATA Ycir_1[1,2] RI
DATA Ycir_1[1,3] RI
DATA Ycir_1[1,4] RI
DATA Ycir_1[2,1] RI
DATA Ycir_1[2,2] RI
DATA Ycir_1[2,3] RI
DATA Ycir_1[2,4] RI
DATA Ycir_1[3,1] RI
DATA Ycir_1[3,2] RI
DATA Ycir_1[3,3] RI
DATA Ycir_1[3,4] RI
DATA Ycir_1[4,1] RI
DATA Ycir_1[4,2] RI
DATA Ycir_1[4,3] RI
DATA Ycir_1[4,4] RI

VAR_LIST_BEGIN
	 9000000000
	 9090000000
	 9180000000
	 9270000000
	 9805801398
	 1.1e+010
VAR_LIST_END

BEGIN
	 0.4766845489,	 319.0538834
	 0.4800512772,	 322.2573189
	 0.4834176131,	 325.4610025
	 0.4867696762,	 328.6649185
	 0.5066111017,	 347.7438376
	 0.5500745836,	 390.2959572
END
BEGIN
	 0.4766845489,	 319.0538834
	 0.4800512772,	 322.2573189
	 0.4834176131,	 325.4610025
	 0.4867696762,	 328.6649185
	 0.5066111017,	 347.7438376
	 0.5500745836,	 390.2959572
END
BEGIN
	 0.4766845489,	 319.0538834
	 0.4800512772,	 322.2573189
	 0.4834176131,	 325.4610025
	 0.4867696762,	 328.6649185
	 0.5066111017,	 347.7438376
	 0.5500745836,	 390.2959572
END
BEGIN
	 0.4766845489,	 319.0538834
	 0.4800512772,	 322.2573189
	 0.4834176131,	 325.4610025
	 0.4867696762,	 328.6649185
	 0.5066111017,	 347.7438376
	 0.5500745836,	 390.2959572
END
BEGIN
	 50.450673195729046 ,	 -0.015628543493942854 
	 50.449714597352369 ,	 -0.015399373061184697 
	 50.448775750853819 ,	 -0.015174524112779603 
	 50.447854711598808 ,	 -0.014951754687010328 
	 50.442752145931927 ,	 -0.01369162477584198 
	 50.433603192080461 ,	 -0.011216380936312692 
END
BEGIN
	-5.867565366e-014,	-3.391274013e-016
	 4.279235296e-014,	-1.822318879e-013
	-3.057222852e-014,	 4.687990247e-015
	-8.004019361e-015,	-4.558198411e-017
	 3.958950952e-014,	-1.022863442e-014
	-7.67754657e-015,	-8.402876162e-014
END
BEGIN
	 6.71420523e-014,	 2.218256768e-013
	-3.330953697e-015,	-1.915638398e-017
	-9.237013444e-016,	-5.286166046e-018
	-2.839153383e-013,	-1.098497597e-014
	 5.507744787e-014,	 2.598339204e-013
	-2.48662691e-015,	-1.299515516e-017
END
BEGIN
	-1.376709532e-016,	 2.381975959e-014
	 3.661858784e-013,	 5.425278762e-014
	 7.958163176e-015,	-1.15981387e-013
	 1.448943478e-015,	 2.228865053e-013
	 4.289046774e-019,	-7.745985365e-017
	-9.60544071e-015,	-1.847126239e-014
END
BEGIN
	-6.81522702e-014,	 7.206667137e-014
	-2.256759552e-013,	 1.193309792e-013
	 4.611044658e-016,	-9.091641738e-016
	 8.393636061e-014,	-4.617442856e-014
	-8.262106544e-014,	-8.375571684e-014
	 1.078203535e-013,	-6.462363393e-014
END
BEGIN
	 50.450673195729351 ,	 -0.015628543493951964 
	 50.44971459735229 ,	 -0.015399373060991171 
	 50.448775750853841 ,	 -0.015174524112799861 
	 50.447854711598794 ,	 -0.014951754686853481 
	 50.442752145931927 ,	 -0.013691624776181526 
	 50.433603192080447 ,	 -0.011216380936316696 
END
BEGIN
	-2.961255995e-013,	-3.231471488e-014
	-3.433999262e-015,	-1.23411088e-013
	 1.247443332e-014,	-2.293600201e-015
	 2.118341272e-013,	-1.417231502e-013
	-8.005992233e-014,	 1.73124325e-013
	-7.618873174e-014,	-6.679008862e-014
END
BEGIN
	 1.468246082e-013,	-5.832326e-014
	-4.544506439e-014,	-1.837752779e-013
	-7.179504461e-015,	-6.803625746e-015
	-1.329300526e-013,	-1.837395987e-014
	-2.185425519e-013,	 3.262470605e-015
	 1.271549413e-013,	 1.670565017e-013
END
BEGIN
	-3.982608486e-013,	-2.66104627e-013
	 6.606733773e-015,	 4.20700887e-014
	 1.318656669e-015,	 1.417195466e-014
	-1.143925162e-013,	 5.646251094e-014
	 3.014805704e-013,	 9.230329059e-014
	 1.035788253e-015,	 3.378991427e-014
END
BEGIN
	-3.731838302e-017,	-3.505995035e-014
	-2.731311773e-014,	 2.292124582e-014
	-1.809380467e-013,	-1.207327638e-014
	 7.356782654e-014,	 6.198653848e-014
	-3.166110545e-013,	 1.369320433e-013
	-1.643737641e-014,	 1.285246733e-013
END
BEGIN
	 50.450673195729152 ,	 -0.015628543494073395 
	 50.449714597352241 ,	 -0.015399373061154267 
	 50.448775750853351 ,	 -0.015174524112835356 
	 50.447854711598787 ,	 -0.014951754686794624 
	 50.442752145931699 ,	 -0.013691624775967538 
	 50.433603192079893 ,	 -0.011216380936333564 
END
BEGIN
	-1.341736084e-013,	-1.926114831e-013
	-1.848865108e-014,	 2.658339482e-013
	-1.379285258e-014,	 1.359751732e-014
	-3.679021613e-013,	 1.148051695e-013
	 4.701151881e-015,	 1.072100631e-015
	 6.414887476e-014,	-1.752078284e-013
END
BEGIN
	-3.785771551e-014,	 6.115720159e-014
	 3.0053209e-013,	 1.96150267e-014
	-4.91220284e-015,	-3.568578203e-014
	 4.407789431e-014,	-5.826792615e-014
	-4.532416106e-013,	-6.268189033e-016
	 5.986552881e-014,	-3.735758387e-014
END
BEGIN
	-1.969669827e-014,	-1.138409149e-016
	 3.715168784e-013,	-1.334007201e-014
	-4.130177951e-014,	 1.514363658e-013
	 3.375402595e-015,	-6.460521879e-014
	-7.536347828e-014,	 2.627661763e-013
	 5.259689484e-014,	-9.042746746e-014
END
BEGIN
	 4.163549697e-016,	-2.530668411e-013
	-1.166166542e-014,	 8.95789281e-013
	 4.980824648e-020,	-8.721429944e-018
	-7.957591708e-015,	-3.243266869e-015
	 8.547715383e-014,	-4.02243986e-014
	 1.307147845e-016,	-2.387476782e-014
END
BEGIN
	 50.450673195728804 ,	 -0.015628543493908912 
	 50.449714597352248 ,	 -0.015399373061572604 
	 50.448775750854324 ,	 -0.015174524112803007 
	 50.447854711598524 ,	 -0.014951754686842044 
	 50.442752145932097 ,	 -0.013691624775977341 
	 50.433603192080263 ,	 -0.011216380936404594 
END
BEGIN
	 0.4766845489,	 319.0538834
	 0.4800512772,	 322.2573189
	 0.4834176131,	 325.4610025
	 0.4867696762,	 328.6649185
	 0.5066111017,	 347.7438376
	 0.5500745836,	 390.2959572
END
BEGIN
	 0,	 0
	 0,	 0
	 0,	 0
	 0,	 0
	 0,	 0
	 0,	 0
END
BEGIN
	 0,	 0
	 0,	 0
	 0,	 0
	 0,	 0
	 0,	 0
	 0,	 0
END
BEGIN
	 0,	 0
	 0,	 0
	 0,	 0
	 0,	 0
	 0,	 0
	 0,	 0
END
BEGIN
	 0,	 0
	 0,	 0
	 0,	 0
	 0,	 0
	 0,	 0
	 0,	 0
END
BEGIN
	 0.4766845489,	 319.0538834
	 0.4800512772,	 322.2573189
	 0.4834176131,	 325.4610025
	 0.4867696762,	 328.6649185
	 0.5066111017,	 347.7438376
	 0.5500745836,	 390.2959572
END
BEGIN
	 0,	 0
	 0,	 0
	 0,	 0
	 0,	 0
	 0,	 0
	 0,	 0
END
BEGIN
	 0,	 0
	 0,	 0
	 0,	 0
	 0,	 0
	 0,	 0
	 0,	 0
END
BEGIN
	 0,	 0
	 0,	 0
	 0,	 0
	 0,	 0
	 0,	 0
	 0,	 0
END
BEGIN
	 0,	 0
	 0,	 0
	 0,	 0
	 0,	 0
	 0,	 0
	 0,	 0
END
BEGIN
	 0.4766845489,	 319.0538834
	 0.4800512772,	 322.2573189
	 0.4834176131,	 325.4610025
	 0.4867696762,	 328.6649185
	 0.5066111017,	 347.7438376
	 0.5500745836,	 390.2959572
END
BEGIN
	 0,	 0
	 0,	 0
	 0,	 0
	 0,	 0
	 0,	 0
	 0,	 0
END
BEGIN
	 0,	 0
	 0,	 0
	 0,	 0
	 0,	 0
	 0,	 0
	 0,	 0
END
BEGIN
	 0,	 0
	 0,	 0
	 0,	 0
	 0,	 0
	 0,	 0
	 0,	 0
END
BEGIN
	 0,	 0
	 0,	 0
	 0,	 0
	 0,	 0
	 0,	 0
	 0,	 0
END
BEGIN
	 0.4766845489,	 319.0538834
	 0.4800512772,	 322.2573189
	 0.4834176131,	 325.4610025
	 0.4867696762,	 328.6649185
	 0.5066111017,	 347.7438376
	 0.5500745836,	 390.2959572
END
BEGIN
	 0.07707210907,	 7.555753727e-010
	 0.07745861021,	 7.55591261e-010
	 0.07784491298,	 7.556074268e-010
	 0.07822730995,	 7.556238058e-010
	 0.08047144347,	 7.557261586e-010
	 0.08525978864,	 7.559807419e-010
END
BEGIN
	 2.12964348e-016,	-8.787649287e-025
	 1.559367319e-013,	 6.368406323e-025
	-4.089230115e-015,	-4.577980622e-025
	 2.942445359e-017,	-1.198877786e-025
	 9.494857308e-015,	 5.929013977e-025
	 8.704332237e-014,	-1.168587675e-025
END
BEGIN
	-1.877797607e-013,	 1.010518085e-024
	 1.214199006e-017,	-4.988853218e-026
	 3.381483191e-018,	-1.383506002e-026
	 9.21660467e-015,	-4.252818625e-024
	-2.397676159e-013,	 8.30834065e-025
	 9.832300744e-018,	-3.727388829e-026
END
BEGIN
	-2.017318778e-014,	-1.528846786e-027
	-4.594153121e-014,	 5.485621532e-024
	 1.002076524e-013,	 1.166149347e-025
	-1.944474784e-013,	 2.664717925e-026
	 7.150048539e-017,	 4.735125719e-030
	 1.912236435e-014,	-1.443722133e-025
END
BEGIN
	-6.111967751e-014,	-1.019071569e-024
	-1.023639741e-013,	-3.377314287e-024
	 7.860273976e-016,	 6.886068665e-027
	 4.039168018e-014,	 1.256201394e-024
	 7.720024782e-014,	-1.239645656e-024
	 6.710808194e-014,	 1.614821808e-024
END
BEGIN
	 0.07707210907,	 7.555753727e-010
	 0.07745861021,	 7.55591261e-010
	 0.07784491298,	 7.556074268e-010
	 0.07822730995,	 7.556238058e-010
	 0.08047144347,	 7.557261586e-010
	 0.08525978864,	 7.559807419e-010
END
BEGIN
	 2.699271862e-014,	-4.43565524e-024
	 1.055621776e-013,	-5.418481904e-026
	 1.997470469e-015,	 1.867875753e-025
	 1.239149965e-013,	 3.169775515e-024
	-1.599113896e-013,	-1.195668204e-024
	 6.908387113e-014,	-1.1434518e-024
END
BEGIN
	 4.957989397e-014,	 2.197617254e-024
	 1.571445194e-013,	-6.84736496e-025
	 5.868505315e-015,	-1.076839851e-025
	 1.585794573e-014,	-1.991476537e-024
	-3.305335174e-015,	-3.274103605e-024
	-1.728863355e-013,	 1.909534584e-024
END
BEGIN
	 2.248607424e-013,	-5.970517489e-024
	-3.59785768e-014,	 9.988848069e-026
	-1.224159644e-014,	 2.006575558e-026
	-4.940650138e-014,	-1.712155227e-024
	-8.479583793e-014,	 4.518755579e-024
	-3.500513458e-014,	 1.623992876e-026
END
BEGIN
	 2.969231185e-014,	-1.343393192e-027
	-1.964176924e-014,	-4.085605475e-025
	 1.019804172e-014,	-2.710308448e-024
	-5.398287966e-014,	 1.103297575e-024
	-1.26821932e-013,	-4.740435064e-024
	-1.331766872e-013,	-2.436749477e-025
END
BEGIN
	 0.07707210907,	 7.555753727e-010
	 0.07745861021,	 7.55591261e-010
	 0.07784491298,	 7.556074268e-010
	 0.07822730995,	 7.556238058e-010
	 0.08047144347,	 7.557261586e-010
	 0.08525978864,	 7.559807419e-010
END
BEGIN
	 1.629533711e-013,	-2.01376411e-024
	-2.274194452e-013,	-2.709758678e-025
	-1.176472544e-014,	-2.062830161e-025
	-1.006330221e-013,	-5.508009692e-024
	-9.832887523e-016,	 7.045541864e-026
	 1.816105094e-013,	 9.578663551e-025
END
BEGIN
	-5.184208813e-014,	-5.656085485e-025
	-1.639585139e-014,	 4.501543844e-024
	 3.08229885e-014,	-7.436750872e-026
	 5.089071838e-014,	 6.589202328e-025
	-3.091022606e-017,	-6.790417896e-024
	 3.879019523e-014,	 8.965728222e-025
END
BEGIN
	 7.148952321e-017,	-2.949906233e-025
	 1.188458217e-014,	 5.563956532e-024
	-1.308803374e-013,	-6.152376049e-025
	 5.636687113e-014,	 4.912468146e-026
	-2.426496685e-013,	-1.123350163e-024
	 9.376044603e-014,	 7.864975415e-025
END
BEGIN
	 2.143234634e-013,	 5.729837584e-028
	-7.662781554e-013,	-1.546725145e-025
	 7.534591487e-018,	 5.51989409e-031
	 2.81919012e-015,	-1.192633067e-025
	 3.724438395e-014,	 1.27972915e-024
	 2.47346593e-014,	 1.454986419e-027
END
BEGIN
	 0.07707210907,	 7.555753727e-010
	 0.07745861021,	 7.55591261e-010
	 0.07784491298,	 7.556074268e-010
	 0.07822730995,	 7.556238058e-010
	 0.08047144347,	 7.557261586e-010
	 0.08525978864,	 7.559807419e-010
END
BEGIN
	 2.8215079016417093 ,	 4.2131360047168754e-008 
	 2.8502092125024667 ,	 4.2133846550943147e-008 
	 2.8789165656443334 ,	 4.2136315712444963e-008 
	 2.9076293397679613 ,	 4.2138767165139429e-008 
	 3.0786789834463288 ,	 4.2152998720630942e-008 
	 3.4605709442637611 ,	 4.2182493151447144e-008 
END
BEGIN
	-1.35917507e-014,	 4.900030264e-023
	-8.694213256e-012,	-3.560489032e-023
	 2.271491246e-013,	 2.55313796e-023
	-1.87173633e-015,	 6.68574125e-024
	-5.284988715e-013,	-3.307557187e-023
	-4.857072438e-012,	 6.489267047e-024
END
BEGIN
	 1.04726805e-011,	-5.623234478e-023
	-7.740679623e-016,	 2.78191146e-024
	-2.153382056e-016,	 7.715069015e-025
	-5.221688242e-013,	 2.371608612e-022
	 1.337532884e-011,	-4.622449864e-023
	-6.125642767e-016,	 2.07981717e-024
END
BEGIN
	 1.12486545e-012,	 9.757362946e-026
	 2.572488968e-012,	-3.058656237e-022
	-5.587830518e-012,	-6.561286172e-024
	 1.084376523e-011,	-1.375671449e-024
	-3.988151437e-015,	-2.992557777e-028
	-1.067243638e-012,	 8.048861552e-024
END
BEGIN
	 3.406077178e-012,	 5.686135028e-023
	 5.701523945e-012,	 1.883891386e-022
	-4.381930853e-014,	-3.844571608e-025
	-2.250096154e-012,	-7.007725763e-023
	-4.308394766e-012,	 6.91071221e-023
	-3.74174886e-012,	-9.012845762e-023
END
BEGIN
	 2.821507901641267 ,	 4.2131360047168509e-008 
	 2.850209212511702 ,	 4.2133846550943199e-008 
	 2.8789165656433564 ,	 4.2136315712444943e-008 
	 2.9076293397755926 ,	 4.2138767165139436e-008 
	 3.0786789834288513 ,	 4.2152998720630948e-008 
	 3.460570944263532 ,	 4.2182493151447157e-008 
END
BEGIN
	-1.513794765e-012,	 2.473181711e-022
	-5.886536215e-012,	 2.958572082e-024
	-1.110270403e-013,	-1.041732695e-023
	-6.904240012e-012,	-1.768385685e-022
	 8.917320741e-012,	 6.677067453e-023
	-3.856726042e-012,	 6.377789254e-023
END
BEGIN
	-2.760309895e-012,	-1.225706787e-022
	-8.764132269e-012,	 3.808908399e-023
	-3.274641852e-013,	 6.001558922e-024
	-8.88181246e-013,	 1.110492767e-022
	 1.782571845e-013,	 1.826248591e-022
	 9.650044265e-012,	-1.06486757e-022
END
BEGIN
	-1.25500269e-011,	 3.327820819e-022
	 2.006456396e-012,	-5.548605651e-024
	 6.826885728e-013,	-1.111842306e-024
	 2.751946017e-012,	 9.550946075e-023
	 4.738179676e-012,	-2.520058667e-022
	 1.953255891e-012,	-8.935906675e-025
END
BEGIN
	-1.655662838e-012,	 5.676865621e-026
	 1.094483505e-012,	 2.279414194e-023
	-5.739357959e-013,	 1.511337819e-022
	 3.012576792e-012,	-6.149673943e-023
	 7.065041072e-012,	 2.644747256e-022
	 7.430618685e-012,	 1.364447833e-023
END
BEGIN
	 2.8215079016355382 ,	 4.2131360047168662e-008 
	 2.8502092125039251 ,	 4.2133846550943252e-008 
	 2.8789165656416689 ,	 4.2136315712445353e-008 
	 2.9076293397784596 ,	 4.2138767165139449e-008 
	 3.0786789834398771 ,	 4.215299872063114e-008 
	 3.4605709442625852 ,	 4.2182493151447627e-008 
END
BEGIN
	-9.090306798e-012,	 1.121890813e-022
	 1.268099291e-011,	 1.524589375e-023
	 6.556579933e-013,	 1.151016636e-023
	 5.601376796e-012,	 3.072211962e-022
	 5.497740514e-014,	-3.929385201e-024
	-1.013191995e-011,	-5.351255824e-023
END
BEGIN
	 2.889639388e-012,	 3.157032621e-023
	 9.230290817e-013,	-2.510084162e-022
	-1.718980604e-012,	 4.129159676e-024
	-2.836743922e-012,	-3.677475627e-023
	-1.094392362e-014,	 3.787565331e-022
	-2.162890145e-012,	-5.004119519e-023
END
BEGIN
	-4.562584237e-015,	 1.644880143e-023
	-6.51898293e-013,	-3.102682606e-022
	 7.297320757e-012,	 3.438470163e-023
	-3.143305529e-012,	-2.77151675e-024
	 1.353243855e-011,	 6.277757501e-023
	-5.230327132e-012,	-4.391891804e-023
END
BEGIN
	-1.195079722e-011,	-1.628850107e-025
	 4.272942962e-011,	 9.081686587e-024
	-4.20163654e-016,	-3.516375275e-029
	-1.574468421e-013,	 6.64933315e-024
	-2.075033044e-012,	-7.139914753e-023
	-1.380150174e-012,	-9.006794619e-026
END
BEGIN
	 2.8215079016433222 ,	 4.2131360047168953e-008 
	 2.8502092124839731 ,	 4.2133846550943239e-008 
	 2.8789165656431877 ,	 4.2136315712444546e-008 
	 2.9076293397761592 ,	 4.213876716513966e-008 
	 3.0786789834393584 ,	 4.2152998720630809e-008 
	 3.4605709442584605 ,	 4.2182493151447309e-008 
END
