CITIFILE A.01.01
#Momentum: B.08.60.277 (*) 351.200 Jul 12 2009 
#Momentum Date and Time: Tue Jul 14 11:59:12 2009

NAME Momentum.SP

#  mode: MW    project: \s2kk.1\proj    reference: S_50

CONSTANT NBR_OF_PORTS 4

CONSTANT NORMALIZATION 1

VAR freq MAG 7

DATA S[1,1] RI
DATA S[1,2] RI
DATA S[1,3] RI
DATA S[1,4] RI
DATA S[2,1] RI
DATA S[2,2] RI
DATA S[2,3] RI
DATA S[2,4] RI
DATA S[3,1] RI
DATA S[3,2] RI
DATA S[3,3] RI
DATA S[3,4] RI
DATA S[4,1] RI
DATA S[4,2] RI
DATA S[4,3] RI
DATA S[4,4] RI
DATA S_50[1,1] RI
DATA S_50[1,2] RI
DATA S_50[1,3] RI
DATA S_50[1,4] RI
DATA S_50[2,1] RI
DATA S_50[2,2] RI
DATA S_50[2,3] RI
DATA S_50[2,4] RI
DATA S_50[3,1] RI
DATA S_50[3,2] RI
DATA S_50[3,3] RI
DATA S_50[3,4] RI
DATA S_50[4,1] RI
DATA S_50[4,2] RI
DATA S_50[4,3] RI
DATA S_50[4,4] RI
DATA S_Z0[1,1] RI
DATA S_Z0[1,2] RI
DATA S_Z0[1,3] RI
DATA S_Z0[1,4] RI
DATA S_Z0[2,1] RI
DATA S_Z0[2,2] RI
DATA S_Z0[2,3] RI
DATA S_Z0[2,4] RI
DATA S_Z0[3,1] RI
DATA S_Z0[3,2] RI
DATA S_Z0[3,3] RI
DATA S_Z0[3,4] RI
DATA S_Z0[4,1] RI
DATA S_Z0[4,2] RI
DATA S_Z0[4,3] RI
DATA S_Z0[4,4] RI
DATA Z0[1] RI
DATA Z0[2] RI
DATA Z0[3] RI
DATA Z0[4] RI
DATA PORTZ[1] RI
DATA PORTZ[2] RI
DATA PORTZ[3] RI
DATA PORTZ[4] RI

VAR_LIST_BEGIN
	 9000000000
	 9250000000
	 9500000000
	 1e+010
	 1.025e+010
	 1.05e+010
	 1.1e+010
VAR_LIST_END

BEGIN
	 0.523662689,	 0.225886602
	 0.421920668,	-0.086055594
	 0.185481109,	-0.231426393
	-0.0558501345,	-0.0148172699
	 0.110177386,	 0.0815622849
	 0.338606556,	-0.0605748624
	 0.198573201,	-0.67428066
END
BEGIN
	 0.0469040147,	-0.0166408294
	 0.0204071186,	-0.0540009884
	-0.0343329005,	-0.053091411
	-0.0407366643,	 0.0672896039
	 0.0450600271,	 0.077472549
	 0.0916557769,	-0.00108254833
	-0.0109356763,	-0.059439755
END
BEGIN
	 0.0208934044,	 0.0269014293
	 0.0426607773,	-0.00496705145
	 0.0196776424,	-0.0470130334
	-0.0627917815,	 0.0116189228
	-0.0169173389,	 0.0623287139
	 0.0421528344,	 0.037097749
	 0.0107376199,	-0.0261863712
END
BEGIN
	-0.0207450007,	 0.0201591555
	 0.0129151224,	 0.0337488824
	 0.0417241583,	 0.000899419486
	-0.0342012259,	-0.0334234854
	-0.0408752305,	 0.0204993337
	 0.00447611274,	 0.0379218587
	 0.0149369272,	-0.0128435427
END
BEGIN
	 0.0469040148,	-0.0166408294
	 0.0204071186,	-0.0540009885
	-0.0343329005,	-0.053091411
	-0.0407366643,	 0.0672896039
	 0.0450600271,	 0.077472549
	 0.0916557769,	-0.00108254834
	-0.0109356763,	-0.059439755
END
BEGIN
	 0.526639812,	 0.224096152
	 0.422102404,	-0.0916801849
	 0.177920937,	-0.235856353
	-0.0515314165,	 0.00196397596
	 0.130505193,	 0.0817920677
	 0.343021487,	-0.0791631338
	 0.191363546,	-0.669785505
END
BEGIN
	 0.0487595041,	-0.0137027925
	 0.0255325629,	-0.0557972944
	-0.0351371077,	-0.0604744652
	-0.0446475714,	 0.0776602324
	 0.055076976,	 0.0831781219
	 0.0977256397,	-0.00871137529
	-0.0149413965,	-0.0587578265
END
BEGIN
	 0.0201857994,	 0.0287949988
	 0.044995628,	-0.00318030693
	 0.0227791873,	-0.0493436536
	-0.0682526096,	 0.0124922576
	-0.0170428666,	 0.067998812
	 0.0470398622,	 0.0381708346
	 0.00890655065,	-0.0282055416
END
BEGIN
	 0.0208934044,	 0.0269014293
	 0.0426607773,	-0.00496705145
	 0.0196776424,	-0.0470130334
	-0.0627917815,	 0.0116189228
	-0.0169173389,	 0.0623287139
	 0.0421528344,	 0.037097749
	 0.0107376199,	-0.0261863712
END
BEGIN
	 0.0487595041,	-0.0137027926
	 0.0255325629,	-0.0557972944
	-0.0351371077,	-0.0604744652
	-0.0446475714,	 0.0776602324
	 0.055076976,	 0.0831781219
	 0.0977256397,	-0.00871137529
	-0.0149413965,	-0.0587578265
END
BEGIN
	 0.526093687,	 0.225626756
	 0.42402704,	-0.0903928059
	 0.180149368,	-0.237943435
	-0.0557805417,	 0.00331044423
	 0.131114553,	 0.0863120553
	 0.346944131,	-0.0789279899
	 0.189798321,	-0.671096122
END
BEGIN
	 0.047957703,	-0.0160285296
	 0.0224499716,	-0.0547000237
	-0.0335876808,	-0.0566505886
	-0.0469370314,	 0.0717217506
	 0.0482531472,	 0.0856977991
	 0.10002466,	-0.00212821512
	-0.0149781705,	-0.0622499842
END
BEGIN
	-0.0207450007,	 0.0201591555
	 0.0129151224,	 0.0337488824
	 0.0417241583,	 0.000899419486
	-0.0342012259,	-0.0334234854
	-0.0408752305,	 0.0204993337
	 0.00447611273,	 0.0379218586
	 0.0149369272,	-0.0128435427
END
BEGIN
	 0.0201857994,	 0.0287949988
	 0.044995628,	-0.00318030693
	 0.0227791873,	-0.0493436536
	-0.0682526096,	 0.0124922576
	-0.0170428666,	 0.067998812
	 0.0470398622,	 0.0381708346
	 0.00890655065,	-0.0282055416
END
BEGIN
	 0.0479577029,	-0.0160285296
	 0.0224499716,	-0.0547000238
	-0.0335876808,	-0.0566505886
	-0.0469370315,	 0.0717217507
	 0.0482531472,	 0.0856977991
	 0.10002466,	-0.00212821512
	-0.0149781705,	-0.0622499842
END
BEGIN
	 0.524923862,	 0.2229234
	 0.419481547,	-0.0899993729
	 0.179599497,	-0.232281249
	-0.0561173547,	-0.00398774934
	 0.121744674,	 0.0888464565
	 0.350702514,	-0.0682832783
	 0.190617276,	-0.677843222
END
BEGIN
	 0.523662689,	 0.225886602
	 0.421920668,	-0.086055594
	 0.185481109,	-0.231426393
	-0.0558501345,	-0.0148172699
	 0.110177386,	 0.0815622849
	 0.338606556,	-0.0605748624
	 0.198573201,	-0.67428066
END
BEGIN
	 0.0469040147,	-0.0166408294
	 0.0204071186,	-0.0540009884
	-0.0343329005,	-0.053091411
	-0.0407366643,	 0.0672896039
	 0.0450600271,	 0.077472549
	 0.0916557769,	-0.00108254833
	-0.0109356763,	-0.059439755
END
BEGIN
	 0.0208934044,	 0.0269014293
	 0.0426607773,	-0.00496705145
	 0.0196776424,	-0.0470130334
	-0.0627917815,	 0.0116189228
	-0.0169173389,	 0.0623287139
	 0.0421528344,	 0.037097749
	 0.0107376199,	-0.0261863712
END
BEGIN
	-0.0207450007,	 0.0201591555
	 0.0129151224,	 0.0337488824
	 0.0417241583,	 0.000899419486
	-0.0342012259,	-0.0334234854
	-0.0408752305,	 0.0204993337
	 0.00447611274,	 0.0379218587
	 0.0149369272,	-0.0128435427
END
BEGIN
	 0.0469040148,	-0.0166408294
	 0.0204071186,	-0.0540009885
	-0.0343329005,	-0.053091411
	-0.0407366643,	 0.0672896039
	 0.0450600271,	 0.077472549
	 0.0916557769,	-0.00108254834
	-0.0109356763,	-0.059439755
END
BEGIN
	 0.526639812,	 0.224096152
	 0.422102404,	-0.0916801849
	 0.177920937,	-0.235856353
	-0.0515314165,	 0.00196397596
	 0.130505193,	 0.0817920677
	 0.343021487,	-0.0791631338
	 0.191363546,	-0.669785505
END
BEGIN
	 0.0487595041,	-0.0137027925
	 0.0255325629,	-0.0557972944
	-0.0351371077,	-0.0604744652
	-0.0446475714,	 0.0776602324
	 0.055076976,	 0.0831781219
	 0.0977256397,	-0.00871137529
	-0.0149413965,	-0.0587578265
END
BEGIN
	 0.0201857994,	 0.0287949988
	 0.044995628,	-0.00318030693
	 0.0227791873,	-0.0493436536
	-0.0682526096,	 0.0124922576
	-0.0170428666,	 0.067998812
	 0.0470398622,	 0.0381708346
	 0.00890655065,	-0.0282055416
END
BEGIN
	 0.0208934044,	 0.0269014293
	 0.0426607773,	-0.00496705145
	 0.0196776424,	-0.0470130334
	-0.0627917815,	 0.0116189228
	-0.0169173389,	 0.0623287139
	 0.0421528344,	 0.037097749
	 0.0107376199,	-0.0261863712
END
BEGIN
	 0.0487595041,	-0.0137027926
	 0.0255325629,	-0.0557972944
	-0.0351371077,	-0.0604744652
	-0.0446475714,	 0.0776602324
	 0.055076976,	 0.0831781219
	 0.0977256397,	-0.00871137529
	-0.0149413965,	-0.0587578265
END
BEGIN
	 0.526093687,	 0.225626756
	 0.42402704,	-0.0903928059
	 0.180149368,	-0.237943435
	-0.0557805417,	 0.00331044423
	 0.131114553,	 0.0863120553
	 0.346944131,	-0.0789279899
	 0.189798321,	-0.671096122
END
BEGIN
	 0.047957703,	-0.0160285296
	 0.0224499716,	-0.0547000237
	-0.0335876808,	-0.0566505886
	-0.0469370314,	 0.0717217506
	 0.0482531472,	 0.0856977991
	 0.10002466,	-0.00212821512
	-0.0149781705,	-0.0622499842
END
BEGIN
	-0.0207450007,	 0.0201591555
	 0.0129151224,	 0.0337488824
	 0.0417241583,	 0.000899419486
	-0.0342012259,	-0.0334234854
	-0.0408752305,	 0.0204993337
	 0.00447611273,	 0.0379218586
	 0.0149369272,	-0.0128435427
END
BEGIN
	 0.0201857994,	 0.0287949988
	 0.044995628,	-0.00318030693
	 0.0227791873,	-0.0493436536
	-0.0682526096,	 0.0124922576
	-0.0170428666,	 0.067998812
	 0.0470398622,	 0.0381708346
	 0.00890655065,	-0.0282055416
END
BEGIN
	 0.0479577029,	-0.0160285296
	 0.0224499716,	-0.0547000238
	-0.0335876808,	-0.0566505886
	-0.0469370315,	 0.0717217507
	 0.0482531472,	 0.0856977991
	 0.10002466,	-0.00212821512
	-0.0149781705,	-0.0622499842
END
BEGIN
	 0.524923862,	 0.2229234
	 0.419481547,	-0.0899993729
	 0.179599497,	-0.232281249
	-0.0561173547,	-0.00398774934
	 0.121744674,	 0.0888464565
	 0.350702514,	-0.0682832783
	 0.190617276,	-0.677843222
END
BEGIN
	 0.523662689,	 0.225886602
	 0.421920668,	-0.086055594
	 0.185481109,	-0.231426393
	-0.0558501345,	-0.0148172699
	 0.110177386,	 0.0815622849
	 0.338606556,	-0.0605748624
	 0.198573201,	-0.67428066
END
BEGIN
	 0.0469040147,	-0.0166408294
	 0.0204071186,	-0.0540009884
	-0.0343329005,	-0.053091411
	-0.0407366643,	 0.0672896039
	 0.0450600271,	 0.077472549
	 0.0916557769,	-0.00108254833
	-0.0109356763,	-0.059439755
END
BEGIN
	 0.0208934044,	 0.0269014293
	 0.0426607773,	-0.00496705145
	 0.0196776424,	-0.0470130334
	-0.0627917815,	 0.0116189228
	-0.0169173389,	 0.0623287139
	 0.0421528344,	 0.037097749
	 0.0107376199,	-0.0261863712
END
BEGIN
	-0.0207450007,	 0.0201591555
	 0.0129151224,	 0.0337488824
	 0.0417241583,	 0.000899419486
	-0.0342012259,	-0.0334234854
	-0.0408752305,	 0.0204993337
	 0.00447611274,	 0.0379218587
	 0.0149369272,	-0.0128435427
END
BEGIN
	 0.0469040148,	-0.0166408294
	 0.0204071186,	-0.0540009885
	-0.0343329005,	-0.053091411
	-0.0407366643,	 0.0672896039
	 0.0450600271,	 0.077472549
	 0.0916557769,	-0.00108254834
	-0.0109356763,	-0.059439755
END
BEGIN
	 0.526639812,	 0.224096152
	 0.422102404,	-0.0916801849
	 0.177920937,	-0.235856353
	-0.0515314165,	 0.00196397596
	 0.130505193,	 0.0817920677
	 0.343021487,	-0.0791631338
	 0.191363546,	-0.669785505
END
BEGIN
	 0.0487595041,	-0.0137027925
	 0.0255325629,	-0.0557972944
	-0.0351371077,	-0.0604744652
	-0.0446475714,	 0.0776602324
	 0.055076976,	 0.0831781219
	 0.0977256397,	-0.00871137529
	-0.0149413965,	-0.0587578265
END
BEGIN
	 0.0201857994,	 0.0287949988
	 0.044995628,	-0.00318030693
	 0.0227791873,	-0.0493436536
	-0.0682526096,	 0.0124922576
	-0.0170428666,	 0.067998812
	 0.0470398622,	 0.0381708346
	 0.00890655065,	-0.0282055416
END
BEGIN
	 0.0208934044,	 0.0269014293
	 0.0426607773,	-0.00496705145
	 0.0196776424,	-0.0470130334
	-0.0627917815,	 0.0116189228
	-0.0169173389,	 0.0623287139
	 0.0421528344,	 0.037097749
	 0.0107376199,	-0.0261863712
END
BEGIN
	 0.0487595041,	-0.0137027926
	 0.0255325629,	-0.0557972944
	-0.0351371077,	-0.0604744652
	-0.0446475714,	 0.0776602324
	 0.055076976,	 0.0831781219
	 0.0977256397,	-0.00871137529
	-0.0149413965,	-0.0587578265
END
BEGIN
	 0.526093687,	 0.225626756
	 0.42402704,	-0.0903928059
	 0.180149368,	-0.237943435
	-0.0557805417,	 0.00331044423
	 0.131114553,	 0.0863120553
	 0.346944131,	-0.0789279899
	 0.189798321,	-0.671096122
END
BEGIN
	 0.047957703,	-0.0160285296
	 0.0224499716,	-0.0547000237
	-0.0335876808,	-0.0566505886
	-0.0469370314,	 0.0717217506
	 0.0482531472,	 0.0856977991
	 0.10002466,	-0.00212821512
	-0.0149781705,	-0.0622499842
END
BEGIN
	-0.0207450007,	 0.0201591555
	 0.0129151224,	 0.0337488824
	 0.0417241583,	 0.000899419486
	-0.0342012259,	-0.0334234854
	-0.0408752305,	 0.0204993337
	 0.00447611273,	 0.0379218586
	 0.0149369272,	-0.0128435427
END
BEGIN
	 0.0201857994,	 0.0287949988
	 0.044995628,	-0.00318030693
	 0.0227791873,	-0.0493436536
	-0.0682526096,	 0.0124922576
	-0.0170428666,	 0.067998812
	 0.0470398622,	 0.0381708346
	 0.00890655065,	-0.0282055416
END
BEGIN
	 0.0479577029,	-0.0160285296
	 0.0224499716,	-0.0547000238
	-0.0335876808,	-0.0566505886
	-0.0469370315,	 0.0717217507
	 0.0482531472,	 0.0856977991
	 0.10002466,	-0.00212821512
	-0.0149781705,	-0.0622499842
END
BEGIN
	 0.524923862,	 0.2229234
	 0.419481547,	-0.0899993729
	 0.179599497,	-0.232281249
	-0.0561173547,	-0.00398774934
	 0.121744674,	 0.0888464565
	 0.350702514,	-0.0682832783
	 0.190617276,	-0.677843222
END
BEGIN
	 50 ,	 0 
	 50 ,	 0 
	 50 ,	 0 
	 50 ,	 0 
	 50 ,	 0 
	 50 ,	 0 
	 50 ,	 0 
END
BEGIN
	 50 ,	 0 
	 50 ,	 0 
	 50 ,	 0 
	 50 ,	 0 
	 50 ,	 0 
	 50 ,	 0 
	 50 ,	 0 
END
BEGIN
	 50 ,	 0 
	 50 ,	 0 
	 50 ,	 0 
	 50 ,	 0 
	 50 ,	 0 
	 50 ,	 0 
	 50 ,	 0 
END
BEGIN
	 50 ,	 0 
	 50 ,	 0 
	 50 ,	 0 
	 50 ,	 0 
	 50 ,	 0 
	 50 ,	 0 
	 50 ,	 0 
END
BEGIN
	 50 ,	 0 
	 50 ,	 0 
	 50 ,	 0 
	 50 ,	 0 
	 50 ,	 0 
	 50 ,	 0 
	 50 ,	 0 
END
BEGIN
	 50 ,	 0 
	 50 ,	 0 
	 50 ,	 0 
	 50 ,	 0 
	 50 ,	 0 
	 50 ,	 0 
	 50 ,	 0 
END
BEGIN
	 50 ,	 0 
	 50 ,	 0 
	 50 ,	 0 
	 50 ,	 0 
	 50 ,	 0 
	 50 ,	 0 
	 50 ,	 0 
END
BEGIN
	 50 ,	 0 
	 50 ,	 0 
	 50 ,	 0 
	 50 ,	 0 
	 50 ,	 0 
	 50 ,	 0 
	 50 ,	 0 
END
