! Created Fri Dec 19 17:45:58 2025
# hz S ma R 50
! 2 Port Network Data from SP1.SP block
! freq  magS11  angS11  magS21  angS21  magS12  angS12  magS22  angS22  
!     
          10000000      0.0369550952         42.3118499        0.975917995        -9.96142822        0.975917995        -9.96142822       0.0377890065         39.7963304
          14900000      0.0463345735         40.3332912        0.970304571        -14.5439747        0.970304571        -14.5439747       0.0481339447          36.088772
          19800000      0.0534094725         37.8375638        0.965714559        -19.0507135        0.965714559        -19.0507135       0.0565082892         31.5892556
          24700000      0.0589337376         35.3390345        0.961841427        -23.5309529        0.961841427        -23.5309529        0.063633374         26.8207117
          29600000      0.0632158416         32.8107677        0.958389096        -28.0024009        0.958389096        -28.0024009       0.0698104472         21.7615142
          34500000      0.0663278042         30.2229555        0.955191769        -32.4716527        0.955191769        -32.4716527       0.0751235784         16.3684043
          39400000      0.0682551165         27.5900541        0.952170412        -36.9424244        0.952170412        -36.9424244        0.079582313         10.6209997
          44300000      0.0689653348         24.9559845        0.949288582        -41.4181441        0.949288582        -41.4181441       0.0831863117         4.50729777
          49200000      0.0684352531         22.3832002        0.946526039        -45.9025497        0.946526039        -45.9025497       0.0859513192        -1.98844361
          54100000      0.0666608319         19.9518579        0.943865228        -50.3996601        0.943865228        -50.3996601       0.0879193339        -8.89098998
          59000000       0.063661426         17.7684127        0.941285184        -54.9135886        0.941285184        -54.9135886       0.0891631828        -16.2349077
          63900000      0.0594840213         15.9854938        0.938759458        -59.4483533        0.938759458        -59.4483533       0.0897895154        -24.0623784
          68800000      0.0542115774         14.8408186        0.936256133        -64.0077273        0.936256133        -64.0077273       0.0899412812        -32.4183161
          73700000      0.0479814491         14.7347939        0.933738917        -68.5951331        0.933738917        -68.5951331       0.0897991012        -41.3422444
          78600000      0.0410278941         16.3925005        0.931168763        -73.2135773        0.931168763        -73.2135773       0.0895797171        -50.8562781
          83500000      0.0337867873         21.2016027        0.928505784         -77.865621        0.928505784         -77.865621       0.0895287627        -60.9495177
          88400000      0.0271600487         31.7447391        0.925711314        -82.5533797        0.925711314        -82.5533797       0.0899048956        -71.5616068
          93300000      0.0230163419         51.0581124        0.922750047        -87.2785554        0.922750047        -87.2785554       0.0909538464        -82.5716441
          98200000      0.0238552269          75.541637        0.919592165        -92.0425012        0.919592165        -92.0425012       0.0928748673        -93.8005874
         103100000      0.0299253516         93.9592007        0.916215381        -96.8463205        0.916215381        -96.8463205       0.0957872107        -105.031977
         108000000      0.0391540382         103.628904        0.912606766        -101.691006        0.912606766        -101.691006       0.0997069998        -116.046536
         112900000      0.0498518492         107.702871        0.908764213        -106.577619        0.908764213        -106.577619        0.104541771        -126.657236
         117800000      0.0610866131         108.645718        0.904697381        -111.507515        0.904697381        -111.507515        0.110102337        -136.731028
         122700000      0.0722834514         107.764693        0.900427934        -116.482605        0.900427934        -116.482605        0.116125017        -146.192068
         127600000      0.0830048644         105.738844        0.895988886        -121.505669        0.895988886        -121.505669        0.122295806        -155.010679
         132500000      0.0928614583         102.936472        0.891422887        -126.580689        0.891422887        -126.580689        0.128270943        -163.186014
         137400000       0.101474547         99.5654456        0.886779241        -131.713231        0.886779241        -131.713231        0.133692278        -170.728508
         142300000       0.108458509         95.7440552        0.882109464        -136.910828        0.882109464        -136.910828        0.138198664        -177.644551
         147200000       0.113410879         91.5350964        0.877461143        -142.183386        0.877461143        -142.183386        0.141436182         176.077147
         152100000        0.11590559         86.9614668        0.872869786        -147.543566        0.872869786        -147.543566        0.143071255         170.479834
         157000000       0.115487886         82.0103215        0.868348283        -153.007133        0.868348283        -153.007133        0.142812854         165.657224
         161900000       0.111671252         76.6261729        0.863873495        -158.593221        0.863873495        -158.593221        0.140454636         161.781201
         166800000       0.103938816         70.6849942         0.85936951        -164.324445         0.85936951        -164.324445        0.135957633         159.144795
         171700000      0.0917562304         63.9187394        0.854687219        -170.226755        0.854687219        -170.226755        0.129612933         158.222932
         176600000      0.0746192929         55.6655427        0.849580461        -176.328885        0.849580461        -176.328885        0.122351699         159.724265
         181500000      0.0522539367         43.7479746        0.843680231         177.338845        0.843680231         177.338845        0.116261896          164.48597
         186400000      0.0262320909         15.4452745        0.836470869         170.746624        0.836470869         170.746624        0.115096709          172.80421
         191300000      0.0241619871        -83.6622043        0.827276002         163.868467        0.827276002         163.868467          0.1237072         -176.88771
         196200000      0.0627880073         -120.45574        0.815267049         156.686948        0.815267049         156.686948        0.145497982        -167.904563
         201100000       0.112277982        -134.826337        0.799511514         149.199266        0.799511514         149.199266        0.180535436        -162.579434
         206000000       0.168927275        -145.340284        0.779077534         141.423947        0.779077534         141.423947        0.226658681        -161.061366
         210900000        0.23119453        -154.708831        0.753198918         133.406646        0.753198918         133.406646        0.281086801        -162.493057
         215800000       0.297243388        -163.625419        0.721477036          125.22273        0.721477036          125.22273        0.340946553        -165.970351
         220700000       0.364828962        -172.283098        0.684060295         116.974344        0.684060295         116.974344        0.403339313        -170.789174
         225600000       0.431523659         179.301031        0.641722685         108.781011        0.641722685         108.781011        0.465465244        -176.430074
         230500000       0.495061018         171.178122        0.595786995         100.765358        0.595786995         100.765358        0.524865297         177.491566
         235400000       0.553654648         163.417919        0.547904629          93.037891        0.547904629          93.037891        0.579666656         171.259964
         240300000       0.606181566         156.082248        0.499771155         85.6852099        0.499771155         85.6852099        0.628715569         165.079338
         245200000       0.652193381         149.212343        0.452876942         78.7643601        0.452876942         78.7643601        0.671555755         159.088218
         250100000       0.691794593         142.825713         0.40835771         72.3033327         0.40835771         72.3033327        0.708287958         153.372321
         255000000       0.725462121         136.918863        0.366954294         66.3057938        0.366954294         66.3057938        0.739380982         147.977064
         259900000       0.753870548         131.472634        0.329051805         60.7576006        0.329051805         60.7576006        0.765494857          142.91907
         264800000       0.777757691         126.457896        0.294757576         55.6332033        0.294757576         55.6332033        0.787347508         138.195852
         269700000       0.797838023         121.840364        0.263985857         50.9009119        0.263985857         50.9009119        0.805630337         133.793268
         274600000       0.814756369         117.584134        0.236531345         46.5267319        0.236531345         46.5267319        0.820963983         129.690863
         279500000       0.829069617          113.65402        0.212125166         42.4768913        0.212125166         42.4768913        0.833881588         125.865436
         284400000       0.841245283         110.016919        0.190473678         38.7193441        0.190473678         38.7193441         0.84482836         122.293291
         289300000       0.851668809           106.6425        0.171283268         35.2245507        0.171283268         35.2245507        0.854169386         118.951544
         294200000       0.860654427         103.503442        0.154274895         31.9657863        0.154274895         31.9657863        0.862200703          115.81883
         299100000       0.868456689         100.575404        0.139191653           28.91916        0.139191653           28.91916        0.869160808         112.875604
         304000000       0.875281189         97.8368543         0.12580185         26.0634732         0.12580185         26.0634732         0.87524126         110.104221
         308900000       0.881293897         95.2688136        0.113899373         23.3799967        0.113899373         23.3799967        0.880595825         107.488876
         313800000       0.886628963         92.8545864        0.103302518         20.8522176        0.103302518         20.8522176        0.885348072          105.01548
         318700000       0.891395093         90.5794902       0.0938520442         18.4655849       0.0938520442         18.4655849        0.889597548         102.671497
         323600000        0.89568068         88.4306036       0.0854089037         16.2072686       0.0854089037         16.2072686         0.89342472         100.445786
         328500000       0.899557893         86.3965378       0.0778519378         14.0659406       0.0778519378         14.0659406        0.896894889         98.3284408
         333400000       0.903085925         84.4672353       0.0710756718         12.0315796       0.0710756718         12.0315796        0.900061293         96.3106398
         338300000       0.906313563         82.6337929       0.0649882952         10.0952999       0.0649882952         10.0952999        0.902967545         94.3845156
         343200000       0.909281219         80.8883086       0.0595098514         8.24920273       0.0595098514         8.24920273        0.905649553         92.5430362
         348100000       0.912022545         79.2237499       0.0545706413         6.48624712       0.0545706413         6.48624712        0.908137036         90.7799015
         353000000       0.914565708         77.6338405       0.0501098312         4.80013965       0.0501098312         4.80013965        0.910454721         89.0894527
         357900000       0.916934411         76.1129625       0.0460742462         3.18523901       0.0460742462         3.18523901        0.912623293         87.4665938
         362800000       0.919148701         74.6560737       0.0424173295         1.63647415       0.0424173295         1.63647415        0.914660149         85.9067236
         367700000       0.921225623          73.258635       0.0390982474        0.149273981       0.0390982474        0.149273981        0.916579994         84.4056765
         372600000        0.92317974         71.9165495       0.0360811209        -1.28049317       0.0360811209        -1.28049317        0.918395327         82.9596717
         377500000        0.92502356         70.6261093       0.0333343657        -2.65657178       0.0333343657        -2.65657178        0.920116827         81.5652688
         382400000       0.926767877         69.3839497       0.0308301261        -3.98236412       0.0308301261        -3.98236412        0.921753663         80.2193295
         387300000       0.928422047         68.1870097       0.0285437889        -5.26096931       0.0285437889        -5.26096931        0.923313748         78.9189838
         392200000       0.929994222         67.0324978       0.0264535658        -6.49521709       0.0264535658        -6.49521709        0.924803944         77.6616016
         397100000        0.93149153         65.9178624       0.0245401333        -7.68769726       0.0245401333        -7.68769726        0.926230231         76.4447667
         402000000       0.932920237         64.8407654       0.0227863232        -8.84078527       0.0227863232        -8.84078527        0.927597841         75.2662548
         406900000        0.93428587         63.7990603        0.021176855        -9.95666466        0.021176855        -9.95666466         0.92891138          74.124014
         411800000       0.935593325         62.7907719       0.0196981049        -11.0373467       0.0196981049        -11.0373467        0.930174912         73.0161479
         416700000       0.936846957         61.8140792       0.0183379055        -12.0846875       0.0183379055        -12.0846875        0.931392043         71.9409001
         421600000       0.938050651         60.8672999       0.0170853721        -13.1004034       0.0170853721        -13.1004034        0.932565985         70.8966411
         426500000       0.939207888         59.9488774       0.0159307517        -14.0860843       0.0159307517        -14.0860843         0.93369961         69.8818565
         431400000       0.940321797         59.0573681       0.0148652918        -15.0432054       0.0148652918        -15.0432054        0.934795495         68.8951366
         436300000       0.941395199         58.1914317       0.0138811257        -15.9731379       0.0138811257        -15.9731379        0.935855963         67.9351667
         441200000       0.942430647         57.3498212       0.0129711721        -16.8771581       0.0129711721        -16.8771581        0.936883113         67.0007192
         446100000       0.943430457          56.531375       0.0121290478        -17.7564562       0.0121290478        -17.7564562        0.937878849          66.090646
         451000000       0.944396736         55.7350091       0.0113489906        -18.6121434       0.0113489906        -18.6121434        0.938844904         65.2038718
         455900000       0.945331406         54.9597106       0.0106257919        -19.4452586       0.0106257919        -19.4452586         0.93978286         64.3393882
         460800000       0.946236228         54.2045317      0.00995473687        -20.2567745      0.00995473687        -20.2567745        0.940694167         63.4962481
         465700000       0.947112815         53.4685842      0.00933155271        -21.0476031      0.00933155271        -21.0476031        0.941580153         62.6735613
         470600000       0.947962651         52.7510351      0.00875236188           -21.8186      0.00875236188           -21.8186        0.942442044         61.8704897
         475500000       0.948787105         52.0511017      0.00821364143        -22.5705697      0.00821364143        -22.5705697        0.943280969         61.0862432
         480400000       0.949587438         51.3680478      0.00771218673        -23.3042686      0.00771218673        -23.3042686        0.944097976         60.3200769
         485300000        0.95036482         50.7011805      0.00724507932        -24.0204095      0.00724507932        -24.0204095        0.944894033         59.5712868
         490200000       0.951120336         50.0498466      0.00680965837         -24.719664      0.00680965837         -24.719664        0.945670044         58.8392076
         495100000       0.951854993         49.4134297      0.00640349531        -25.4026661      0.00640349531        -25.4026661        0.946426849         58.1232096
         500000000       0.952569731         48.7913475      0.00602437113        -26.0700147      0.00602437113        -26.0700147        0.947165232         57.4226962
