! Created Fri Dec 19 17:52:48 2025
# hz S ma R 50
! 2 Port Network Data from SP1.SP block
! freq  magS11  angS11  magS21  angS21  magS12  angS12  magS22  angS22  
!     
          10000000      0.0415703319         81.8029559         0.99913558        -8.60537457         0.99913558        -8.60537457       0.0415703319          80.986295
          14900000      0.0614307626         77.7932377        0.998111347        -12.8135316        0.998111347        -12.8135316       0.0614307626          76.579699
          19800000      0.0806996046         73.7910111        0.996738468        -17.0121734        0.996738468        -17.0121734       0.0806996046          72.184642
          24700000      0.0991972261         69.7978104        0.995067792        -21.1989579        0.995067792        -21.1989579       0.0991972261         67.8042738
          29600000       0.116755513         65.8144174        0.993160687        -25.3721651        0.993160687        -25.3721651        0.116755513         63.4412524
          34500000        0.13321947         61.8407138        0.991086562        -29.5307996        0.991086562        -29.5307996         0.13321947         59.0976871
          39400000       0.148448177         57.8755504        0.988920188        -33.6746657        0.988920188        -33.6746657        0.148448177         54.7751183
          44300000       0.162315137         53.9166315        0.986738971         -37.804414        0.986738971         -37.804414        0.162315137         50.4745406
          49200000       0.174708077         49.9604073        0.984620276          -41.92156        0.984620276          -41.92156        0.174708077         46.1964727
          54100000       0.185528314         46.0019657        0.982638919        -46.0284778        0.982638919        -46.0284778        0.185528314         41.9410786
          59000000       0.194689817         42.0349107        0.980864861        -50.1283706        0.980864861        -50.1283706        0.194689817         37.7083481
          63900000       0.202118123         38.0512103        0.979361151        -54.2252209        0.979361151        -54.2252209        0.202118123         33.4983479
          68800000        0.20774924         34.0409898        0.978182117         -58.323725        0.978182117         -58.323725         0.20774924         29.3115601
          73700000       0.211528714         29.9922385        0.977371783        -62.4292114        0.977371783        -62.4292114        0.211528714         25.1493388
          78600000       0.213410986         25.8903793        0.976962513        -66.5475475        0.976962513        -66.5475475        0.213410986         21.0145257
          83500000       0.213359222         21.7176317        0.976973819         -70.685035        0.976973819         -70.685035        0.213359222         16.9122983
          88400000       0.211345754         17.4520518        0.977411363        -74.8482939        0.977411363        -74.8482939        0.211345754         12.8513604
          93300000       0.207353343         13.0660691        0.978266115        -79.0441371        0.978266115        -79.0441371        0.207353343         8.84565673
          98200000       0.201377494         8.52421764        0.979513708         -83.279434        0.979513708         -83.279434        0.201377494          4.9169144
         103100000       0.193430197         3.77954386         0.98111404        -87.5609652         0.98111404        -87.5609652        0.193430197         1.09852566
         108000000       0.183545669        -1.23222196        0.983011184        -91.8952691        0.983011184        -91.8952691        0.183545669        -2.55831625
         112900000       0.171789176        -6.60240047        0.985133737        -96.2884821        0.985133737        -96.2884821        0.171789176        -5.97456364
         117800000       0.158271016        -12.4661616        0.987395709        -100.746179        0.987395709        -100.746179        0.158271016        -9.02619549
         122700000       0.143170064        -19.0325286        0.989698102        -105.273217        0.989698102        -105.273217        0.143170064        -11.5139045
         127600000       0.126776633        -26.6396521        0.991931291        -109.873598        0.991931291        -109.873598        0.126776633        -13.1075447
         132500000       0.109577193        -35.8577628        0.993978289         -114.55036        0.993978289         -114.55036        0.109577193        -13.2429567
         137400000      0.0924330203        -47.6688527        0.995718904        -119.305501        0.995718904        -119.305501       0.0924330203        -10.9421487
         142300000      0.0769535364        -63.6686236         0.99703468        -124.139976         0.99703468        -124.139976       0.0769535364        -4.61132782
         147200000      0.0660792428        -85.6249478        0.997814378        -129.053758        0.997814378        -129.053758       0.0660792428         7.51743214
         152100000      0.0638482091        -112.492498        0.997959622        -134.045991        0.997959622        -134.045991       0.0638482091         24.4005151
         157000000      0.0722003112        -137.992986        0.997390152         -139.11524        0.997390152         -139.11524       0.0722003112         39.7625048
         161900000      0.0888156678        -157.466876         0.99604808        -144.259837         0.99604808        -144.259837       0.0888156678         48.9472009
         166800000       0.110281041        -171.426158        0.993900444         -149.47832        0.993900444         -149.47832        0.110281041         52.4695174
         171700000       0.134309385         178.268822        0.990939448        -154.769947        0.990939448        -154.769947        0.134309385         52.1912835
         176600000        0.15961181         170.272806        0.987179857        -160.135256        0.987179857        -160.135256         0.15961181          49.456681
         181500000       0.185452651         163.797198        0.982653201         -165.57664        0.982653201         -165.57664        0.185452651         45.0495233
         186400000       0.211404607         158.390941        0.977398635        -171.098888        0.977398635        -171.098888        0.211404607         39.4112834
         191300000       0.237242431         153.789707        0.971450477         -176.70966        0.971450477         -176.70966        0.237242431         32.7909735
         196200000       0.262901746          149.83165        0.964822612         177.580183        0.964822612         177.580183        0.262901746         25.3287168
         201100000       0.288466137         146.410537        0.957490098         171.756441        0.957490098         171.756441        0.288466137         17.1023454
         206000000       0.314164485         143.448023        0.949368567         165.801721        0.949368567         165.801721        0.314164485         8.15541963
         210900000       0.340367531         140.875756        0.940292478         159.695983        0.940292478         159.695983        0.340367531        -1.48379017
         215800000        0.36757412         138.622997        0.929994229         153.417608        0.929994229         153.417608         0.36757412          -11.78778
         220700000       0.396377269         136.608356        0.918087719         146.945172        0.918087719         146.945172        0.396377269        -22.7180126
         225600000       0.427400813         134.735963        0.904062246          140.26005        0.904062246          140.26005        0.427400813        -34.2158636
         230500000       0.461201719         132.897181        0.887295314         133.349954        0.887295314         133.349954        0.461201719        -46.1972726
         235400000       0.498143436         130.978576        0.867094641         126.213263        0.867094641         126.213263        0.498143436          -58.55205
         240300000       0.538261336         128.875205        0.842777986         118.863672        0.842777986         118.863672        0.538261336          -71.14786
         245200000       0.581157339         126.506092        0.813791219         111.334239        0.813791219         111.334239        0.581157339        -83.8376149
         250100000       0.625967794         123.827227        0.779848909         103.679447        0.779848909         103.679447        0.625967794        -96.4683323
         255000000       0.671436776         120.837776        0.741061843          95.973938        0.741061843          95.973938        0.671436776          -108.8899
         259900000       0.716093743         117.577435         0.69800412         88.3071438         0.69800412         88.3071438        0.716093743        -120.963147
         264800000       0.758491839         114.115974        0.651682538         80.7744233        0.651682538         80.7744233        0.758491839        -132.567128
         269700000       0.797434724         110.538515        0.603405221         73.4666491        0.603405221         73.4666491        0.797434724        -143.605217
         274600000       0.832125189         106.930901        0.554587837         66.4609008        0.554587837         66.4609008        0.832125189        -154.009099
         279500000       0.862205601         103.368575        0.506558487         59.8144088        0.506558487         59.8144088        0.862205601        -163.739758
         284400000       0.887704426         99.9104393        0.460413784         53.5625587        0.460413784         53.5625587        0.887704426        -172.785322
         289300000       0.908929866         96.5973015        0.416949036         47.7203981        0.416949036         47.7203981        0.908929866         178.843495
         294200000        0.92635336          93.453506        0.376655615         42.2863222        0.376655615         42.2863222         0.92635336         171.119138
         299100000       0.940511318         90.4901419        0.339762359          37.246553        0.339762359          37.246553        0.940511318         164.002964
         304000000        0.95193625         87.7086102        0.306296222         32.5794061        0.306296222         32.5794061         0.95193625         157.450202
         308900000       0.961116277         85.1038294        0.276143988         28.2588116        0.276143988         28.2588116        0.961116277         151.413794
         313800000       0.968476446          82.666784        0.249105144         24.2569366        0.249105144         24.2569366        0.968476446         145.847089
         318700000       0.974374352         80.3863862        0.224932483         20.5459769        0.224932483         20.5459769        0.974374352         140.705567
         323600000       0.979103868         78.2507464        0.203360802         17.0992803        0.203360802         17.0992803        0.979103868         135.947814
         328500000       0.982902693         76.2479857        0.184125759         13.8919783        0.184125759         13.8919783        0.982902693         131.535971
         333400000       0.985961075         74.3667214        0.166975324         10.9012798        0.166975324         10.9012798        0.985961075         127.435838
         338300000       0.988430264         72.5963283        0.151676012         8.10654679        0.151676012         8.10654679        0.988430264         123.616765
         343200000       0.990430047         70.9270542        0.138015655         5.48923794        0.138015655         5.48923794        0.990430047         120.051422
         348100000       0.992055119         69.3500466        0.125803976         3.03277819        0.125803976         3.03277819        0.992055119          116.71551
         353000000       0.993380318         67.8573245        0.114871861        0.722393018        0.114871861        0.722393018        0.993380318         113.587462
         357900000       0.994464837         66.4417232        0.105069919         -1.4550692        0.105069919         -1.4550692        0.994464837         110.648138
         362800000       0.995355575         65.0968246       0.0962667081         -3.5113123       0.0962667081         -3.5113123        0.995355575         107.880551
         367700000       0.996089771         63.8168844       0.0883468631        -5.45675732       0.0883468631        -5.45675732        0.996089771         105.269601
         372600000       0.996697073         62.5967599       0.0812092689        -7.30069356       0.0812092689        -7.30069356        0.996697073         102.801853
         377500000       0.997201155         61.4318429       0.0747653441        -9.05141423       0.0747653441        -9.05141423        0.997201155         100.465329
         382400000       0.997620982         60.3179982         0.06893748        -10.7163369         0.06893748        -10.7163369        0.997620982          98.249328
         387300000       0.997971795         59.2515083       0.0636576422        -12.3021094       0.0636576422        -12.3021094        0.997971795          96.144273
         392200000       0.998265885         58.2290239       0.0588661352        -13.8147027       0.0588661352        -13.8147027        0.998265885         94.1415706
         397100000       0.998513196         57.2475214       0.0545105187        -15.2594922       0.0545105187        -15.2594922        0.998513196         92.2334942
         402000000       0.998721802         56.3042643       0.0505446633        -16.6413276       0.0505446633        -16.6413276        0.998721802         90.4130804
         406900000       0.998898278         55.3967704         0.04692793        -17.9645951         0.04692793        -17.9645951        0.998898278         88.6740395
         411800000          0.999048         54.5227824       0.0436244603        -19.2332701       0.0436244603        -19.2332701           0.999048         87.0106775
         416700000       0.999175376         53.6802431       0.0406025611        -20.4509644       0.0406025611        -20.4509644        0.999175376          85.417828
         421600000       0.999284031         52.8672731       0.0378341736        -21.6209666       0.0378341736        -21.6209666        0.999284031         83.8907938
         426500000       0.999376958         52.0821514       0.0352944142        -22.7462771       0.0352944142        -22.7462771        0.999376958         82.4252944
         431400000       0.999456633         51.3232986       0.0329611768        -23.8296398       0.0329611768        -23.8296398        0.999456633         81.0174218
         436300000       0.999525112         50.5892624       0.0308147894        -24.8735686       0.0308147894        -24.8735686        0.999525112         79.6636004
         441200000       0.999584107          49.878704       0.0288377163        -25.8803717       0.0288377163        -25.8803717        0.999584107         78.3605526
         446100000       0.999635047         49.1903872       0.0270142997        -26.8521723       0.0270142997        -26.8521723        0.999635047         77.1052682
         451000000       0.999679131         48.5231683       0.0253305356        -27.7909271       0.0253305356        -27.7909271        0.999679131         75.8949776
         455900000       0.999717361          47.875987       0.0237738784        -28.6984425       0.0237738784        -28.6984425        0.999717361         74.7271281
         460800000       0.999750586         47.2478586       0.0223330717        -29.5763892       0.0223330717        -29.5763892        0.999750586         73.5993629
         465700000       0.999779518         46.6378673       0.0209979992        -30.4263151       0.0209979992        -30.4263151        0.999779518         72.5095024
         470600000       0.999804761         46.0451596       0.0197595561        -31.2496563       0.0197595561        -31.2496563        0.999804761         71.4555278
         475500000       0.999826828          45.468939        0.018609535        -32.0477475        0.018609535        -32.0477475        0.999826828          70.435566
         480400000       0.999846153          44.908461       0.0175405273         -32.821831       0.0175405273         -32.821831        0.999846153          69.447877
         485300000       0.999863108         44.3630288       0.0165458354        -33.5730646       0.0165458354        -33.5730646        0.999863108          68.490842
         490200000        0.99987801         43.8319892       0.0156193962        -34.3025291       0.0156193962        -34.3025291         0.99987801         67.5629525
         495100000       0.999891129         43.3147293       0.0147557137        -35.0112347       0.0147557137        -35.0112347        0.999891129         66.6628012
         500000000       0.999902697         42.8106728       0.0139497992        -35.7001268       0.0139497992        -35.7001268        0.999902697         65.7890737
