CITIFILE A.01.01
#Momentum: B.08.60.263 (*) 351.100 Jul  1 2009 
#Momentum Date and Time: Fri Jul 03 16:29:25 2009

NAME Momentum.SP

#  mode: MW    project: \s5i0.4\proj    reference: S_50

CONSTANT NBR_OF_PORTS 2

CONSTANT NORMALIZATION 1

VAR freq MAG 20

DATA S[1,1] RI
DATA S[1,2] RI
DATA S[2,1] RI
DATA S[2,2] RI
DATA S_50[1,1] RI
DATA S_50[1,2] RI
DATA S_50[2,1] RI
DATA S_50[2,2] RI
DATA S_Z0[1,1] RI
DATA S_Z0[1,2] RI
DATA S_Z0[2,1] RI
DATA S_Z0[2,2] RI
DATA GAMMA[1] RI
DATA GAMMA[2] RI
DATA Z0[1] RI
DATA Z0[2] RI
DATA PORTZ[1] RI
DATA PORTZ[2] RI

VAR_LIST_BEGIN
	 1000000000
	 1777777778
	 2166666667
	 3333333333
	 4111111111
	 4759259259
	 5839506173
	 8000000000
	 9750000000
	 1.15e+010
	 1.325e+010
	 1.5e+010
	 1.743055556e+010
	 1.767361112e+010
	 1.791666667e+010
	 1.85e+010
	 1.908333333e+010
	 1.932638889e+010
	 1.956944444e+010
	 2.2e+010
VAR_LIST_END

BEGIN
	-0.0724047675,	-0.023734398
	-0.00765275052,	 0.00601116775
	 0.0207734614,	-0.054844807
	-0.0437263404,	-0.0101261967
	 0.164127551,	-0.583199161
	-0.672427633,	-0.641113289
	-0.973109238,	 0.200925115
	-0.257237586,	 0.965898657
	 0.404606926,	 0.914258719
	 0.852197732,	 0.522821427
	 0.99954126667460452 ,	 -0.01999237744268852 
	 0.835152284,	-0.549330498
	-0.0315798772,	-0.969247835
	-0.242669756,	-0.119425153
	 0.355745351,	-0.862869175
	-0.0493539574,	-0.983569974
	-0.413645091,	-0.856328984
	-0.274475255,	-0.0215342605
	-0.0402731031,	-0.959126422
	-0.909746618,	-0.413939084
END
BEGIN
	 0.31037713,	-0.947487064
	-0.631554522,	-0.775119625
	-0.931620347,	-0.358252573
	-0.239871487,	 0.969478281
	 0.765472349,	 0.214662372
	 0.254576015,	-0.267100878
	-0.0224326173,	-0.108694086
	-0.0242649874,	-0.00646527868
	-0.0117871004,	 0.00521570073
	-0.00489416274,	 0.00797829823
	 0.000191551143,	 0.00948984302
	 0.00805358753,	 0.0122321508
	 0.23888818,	-0.00901247153
	 0.365264621,	-0.877975948
	-0.327221172,	-0.137049459
	-0.170331858,	 0.0083784699
	-0.274482837,	 0.133078261
	-0.0449967286,	 0.947422593
	 0.273778935,	-0.01044872
	 0.00600266248,	-0.0131771956
END
BEGIN
	 0.31037713,	-0.947487064
	-0.631554522,	-0.775119625
	-0.931620347,	-0.358252573
	-0.239871487,	 0.969478281
	 0.765472349,	 0.214662372
	 0.254576015,	-0.267100878
	-0.0224326173,	-0.108694086
	-0.0242649874,	-0.00646527868
	-0.0117871004,	 0.00521570073
	-0.00489416274,	 0.00797829823
	 0.000191551143,	 0.00948984302
	 0.00805358753,	 0.0122321508
	 0.23888818,	-0.00901247153
	 0.365264621,	-0.877975948
	-0.327221172,	-0.137049459
	-0.170331858,	 0.0083784699
	-0.274482837,	 0.133078261
	-0.0449967286,	 0.947422593
	 0.273778935,	-0.01044872
	 0.00600266248,	-0.0131771956
END
BEGIN
	-0.0724437659,	-0.0236153075
	-0.00740204521,	 0.00631880068
	 0.0213224638,	-0.0546337523
	-0.0433924854,	-0.0114761014
	 0.162508718,	-0.583652959
	-0.673147342,	-0.640358021
	-0.973014483,	 0.201384013
	-0.257055799,	 0.965947077
	 0.404724605,	 0.914206639
	 0.852254243,	 0.522729299
	 0.99953895344130472 ,	 -0.02010694509986476 
	 0.835053512,	-0.549480509
	-0.0343866262,	-0.969142082
	-0.246893754,	-0.109273931
	 0.35945059,	-0.861316932
	-0.0475719031,	-0.983657337
	-0.411143606,	-0.857540883
	-0.274095096,	-0.0294766017
	-0.0423399174,	-0.959048522
	-0.909714658,	-0.414009462
END
BEGIN
	-0.0724047675,	-0.023734398
	-0.00765275052,	 0.00601116775
	 0.0207734614,	-0.054844807
	-0.0437263404,	-0.0101261967
	 0.164127551,	-0.583199161
	-0.672427633,	-0.641113289
	-0.973109238,	 0.200925115
	-0.257237586,	 0.965898657
	 0.404606926,	 0.914258719
	 0.852197732,	 0.522821427
	 0.99954126667460452 ,	 -0.01999237744268852 
	 0.835152284,	-0.549330498
	-0.0315798772,	-0.969247835
	-0.242669756,	-0.119425153
	 0.355745351,	-0.862869175
	-0.0493539574,	-0.983569974
	-0.413645091,	-0.856328984
	-0.274475255,	-0.0215342605
	-0.0402731031,	-0.959126422
	-0.909746618,	-0.413939084
END
BEGIN
	 0.31037713,	-0.947487064
	-0.631554522,	-0.775119625
	-0.931620347,	-0.358252573
	-0.239871487,	 0.969478281
	 0.765472349,	 0.214662372
	 0.254576015,	-0.267100878
	-0.0224326173,	-0.108694086
	-0.0242649874,	-0.00646527868
	-0.0117871004,	 0.00521570073
	-0.00489416274,	 0.00797829823
	 0.000191551143,	 0.00948984302
	 0.00805358753,	 0.0122321508
	 0.23888818,	-0.00901247153
	 0.365264621,	-0.877975948
	-0.327221172,	-0.137049459
	-0.170331858,	 0.0083784699
	-0.274482837,	 0.133078261
	-0.0449967286,	 0.947422593
	 0.273778935,	-0.01044872
	 0.00600266248,	-0.0131771956
END
BEGIN
	 0.31037713,	-0.947487064
	-0.631554522,	-0.775119625
	-0.931620347,	-0.358252573
	-0.239871487,	 0.969478281
	 0.765472349,	 0.214662372
	 0.254576015,	-0.267100878
	-0.0224326173,	-0.108694086
	-0.0242649874,	-0.00646527868
	-0.0117871004,	 0.00521570073
	-0.00489416274,	 0.00797829823
	 0.000191551143,	 0.00948984302
	 0.00805358753,	 0.0122321508
	 0.23888818,	-0.00901247153
	 0.365264621,	-0.877975948
	-0.327221172,	-0.137049459
	-0.170331858,	 0.0083784699
	-0.274482837,	 0.133078261
	-0.0449967286,	 0.947422593
	 0.273778935,	-0.01044872
	 0.00600266248,	-0.0131771956
END
BEGIN
	-0.0724437659,	-0.0236153075
	-0.00740204521,	 0.00631880068
	 0.0213224638,	-0.0546337523
	-0.0433924854,	-0.0114761014
	 0.162508718,	-0.583652959
	-0.673147342,	-0.640358021
	-0.973014483,	 0.201384013
	-0.257055799,	 0.965947077
	 0.404724605,	 0.914206639
	 0.852254243,	 0.522729299
	 0.99953895344130472 ,	 -0.02010694509986476 
	 0.835053512,	-0.549480509
	-0.0343866262,	-0.969142082
	-0.246893754,	-0.109273931
	 0.35945059,	-0.861316932
	-0.0475719031,	-0.983657337
	-0.411143606,	-0.857540883
	-0.274095096,	-0.0294766017
	-0.0423399174,	-0.959048522
	-0.909714658,	-0.414009462
END
BEGIN
	-0.109653833,	-0.0357785165
	-0.0326767431,	 0.0263625694
	 0.015338819,	-0.0409775543
	-0.0827432439,	-0.0197172485
	 0.148231426,	-0.580351763
	-0.692141777,	-0.625818772
	-0.975184317,	 0.193136664
	-0.295554517,	 0.954880125
	 0.369289526,	 0.929080954
	 0.840412656,	 0.541545579
	 0.99951094819201036 ,	 -0.020840968317757474 
	 0.822134443,	-0.568598227
	-0.0706959285,	-0.967319085
	-0.275567952,	-0.131180938
	 0.323574395,	-0.873317218
	-0.0895708586,	-0.980809949
	-0.444555595,	-0.842663494
	-0.311896715,	-0.0229735376
	-0.0785901711,	-0.95693112
	-0.916671371,	-0.398426177
END
BEGIN
	 0.307984733,	-0.944305072
	-0.630541477,	-0.774869243
	-0.933061738,	-0.356625339
	-0.238562938,	 0.967106716
	 0.775468914,	 0.197315224
	 0.24051223,	-0.2660776
	-0.0206952599,	-0.104548323
	-0.0237125507,	-0.00734245508
	-0.0121720427,	 0.00483750516
	-0.0052509624,	 0.00814977818
	 0.000208106254,	 0.00989251517
	 0.00862845978,	 0.0124641568
	 0.237821977,	-0.0185968655
	 0.356912972,	-0.870313118
	-0.336720813,	-0.126942427
	-0.169371232,	 0.0152956228
	-0.264851283,	 0.140207082
	-0.0433693708,	 0.9359959
	 0.272471301,	-0.0213096007
	 0.00556266778,	-0.0127826833
END
BEGIN
	 0.307984733,	-0.944305072
	-0.630541477,	-0.774869243
	-0.933061738,	-0.356625339
	-0.238562938,	 0.967106716
	 0.775468914,	 0.197315224
	 0.24051223,	-0.2660776
	-0.0206952599,	-0.104548323
	-0.0237125507,	-0.00734245508
	-0.0121720427,	 0.00483750516
	-0.0052509624,	 0.00814977818
	 0.000208106254,	 0.00989251517
	 0.00862845978,	 0.0124641568
	 0.237821977,	-0.0185968655
	 0.356912972,	-0.870313118
	-0.336720813,	-0.126942427
	-0.169371232,	 0.0152956228
	-0.264851283,	 0.140207082
	-0.0433693708,	 0.9359959
	 0.272471301,	-0.0213096007
	 0.00556266778,	-0.0127826833
END
BEGIN
	-0.109692531,	-0.035659826
	-0.0324264399,	 0.026670103
	 0.0158886707,	-0.0407674586
	-0.0824112106,	-0.021063851
	 0.146591457,	-0.580768874
	-0.692821723,	-0.625066401
	-0.975096899,	 0.19357806
	-0.295376869,	 0.954935117
	 0.369411049,	 0.92903265
	 0.840473287,	 0.541451471
	 0.99950843506469855 ,	 -0.020960397298589166 
	 0.822028621,	-0.568751083
	-0.073490156,	-0.967100723
	-0.279695379,	-0.12111831
	 0.327387216,	-0.871879415
	-0.0877988426,	-0.980969682
	-0.442141855,	-0.843940378
	-0.311530234,	-0.030820091
	-0.0806471527,	-0.956771225
	-0.916641757,	-0.398494446
END
BEGIN
	 0.00155432027,	 31.0864054
	 0.00276323603,	 55.2647207
	 0.00336769392,	 67.3538784
	 0.00518106756,	 103.621351
	 0.00638998333,	 127.799667
	 0.00739741313,	 147.948263
	 0.0090764628,	 181.529256
	 0.0124345621,	 248.691243
	 0.0151546226,	 303.092453
	 0.0178746831,	 357.493662
	 0.0205947435,	 411.894872
	 0.023314804,	 466.296081
	 0.0270926658,	 541.853317
	 0.0274704519,	 549.40904
	 0.0278482381,	 556.964764
	 0.0287549249,	 575.0985
	 0.0296616118,	 593.232236
	 0.0300393979,	 600.78796
	 0.0304171841,	 608.343683
	 0.0341950459,	 683.900919
END
BEGIN
	 0.00155432027,	 31.0864054
	 0.00276323603,	 55.2647207
	 0.00336769392,	 67.3538784
	 0.00518106756,	 103.621351
	 0.00638998333,	 127.799667
	 0.00739741313,	 147.948263
	 0.0090764628,	 181.529256
	 0.0124345621,	 248.691243
	 0.0151546226,	 303.092453
	 0.0178746831,	 357.493662
	 0.0205947435,	 411.894872
	 0.023314804,	 466.296081
	 0.0270926658,	 541.853317
	 0.0274704519,	 549.40904
	 0.0278482381,	 556.964764
	 0.0287549249,	 575.0985
	 0.0296616118,	 593.232236
	 0.0300393979,	 600.78796
	 0.0304171841,	 608.343683
	 0.0341950459,	 683.900919
END
BEGIN
	 52.123485260000002 ,	 0.002606174256 
	 52.123485240000001 ,	 0.00260617426 
	 52.12348523 ,	 0.00260617426 
	 52.123485209999998 ,	 0.002606174259 
	 52.123485199999998 ,	 0.002606174257 
	 52.123485189999997 ,	 0.002606174256 
	 52.123485180000003 ,	 0.002606174255 
	 52.123485189999997 ,	 0.002606174253 
	 52.123485199999998 ,	 0.002606174253 
	 52.123485240000001 ,	 0.002606174254 
	 52.123485279999997 ,	 0.002606174257 
	 52.123485350000003 ,	 0.002606174261 
	 52.123485359999997 ,	 0.002606174263 
	 52.123485359999997 ,	 0.002606174263 
	 52.123485369999997 ,	 0.002606174263 
	 52.123485369999997 ,	 0.002606174263 
	 52.123485369999997 ,	 0.002606174263 
	 52.123485359999997 ,	 0.002606174263 
	 52.123485359999997 ,	 0.002606174263 
	 52.123485350000003 ,	 0.002606174261 
END
BEGIN
	 52.123485260000002 ,	 0.002606174256 
	 52.123485240000001 ,	 0.00260617426 
	 52.12348523 ,	 0.00260617426 
	 52.123485209999998 ,	 0.002606174259 
	 52.123485199999998 ,	 0.002606174257 
	 52.123485189999997 ,	 0.002606174256 
	 52.123485180000003 ,	 0.002606174255 
	 52.123485189999997 ,	 0.002606174253 
	 52.123485199999998 ,	 0.002606174253 
	 52.123485240000001 ,	 0.002606174254 
	 52.123485279999997 ,	 0.002606174257 
	 52.123485350000003 ,	 0.002606174261 
	 52.123485359999997 ,	 0.002606174263 
	 52.123485359999997 ,	 0.002606174263 
	 52.123485369999997 ,	 0.002606174263 
	 52.123485369999997 ,	 0.002606174263 
	 52.123485369999997 ,	 0.002606174263 
	 52.123485359999997 ,	 0.002606174263 
	 52.123485359999997 ,	 0.002606174263 
	 52.123485350000003 ,	 0.002606174261 
END
BEGIN
	 50 ,	 0 
	 50 ,	 0 
	 50 ,	 0 
	 50 ,	 0 
	 50 ,	 0 
	 50 ,	 0 
	 50 ,	 0 
	 50 ,	 0 
	 50 ,	 0 
	 50 ,	 0 
	 50 ,	 0 
	 50 ,	 0 
	 50 ,	 0 
	 50 ,	 0 
	 50 ,	 0 
	 50 ,	 0 
	 50 ,	 0 
	 50 ,	 0 
	 50 ,	 0 
	 50 ,	 0 
END
BEGIN
	 50 ,	 0 
	 50 ,	 0 
	 50 ,	 0 
	 50 ,	 0 
	 50 ,	 0 
	 50 ,	 0 
	 50 ,	 0 
	 50 ,	 0 
	 50 ,	 0 
	 50 ,	 0 
	 50 ,	 0 
	 50 ,	 0 
	 50 ,	 0 
	 50 ,	 0 
	 50 ,	 0 
	 50 ,	 0 
	 50 ,	 0 
	 50 ,	 0 
	 50 ,	 0 
	 50 ,	 0 
END
