CITIFILE A.01.01
#Momentum: B.09.20.337 (*) 372.200 Aug 21 2011 
#Momentum Date and Time: Thu Aug 25 15:54:37 2011

NAME Momentum.SP

#  mode: MW    project: proj

CONSTANT NBR_OF_PORTS 4

CONSTANT NORMALIZATION 1

VAR freq MAG 60

DATA S[1,1] RI
DATA S[1,2] RI
DATA S[1,3] RI
DATA S[1,4] RI
DATA S[2,1] RI
DATA S[2,2] RI
DATA S[2,3] RI
DATA S[2,4] RI
DATA S[3,1] RI
DATA S[3,2] RI
DATA S[3,3] RI
DATA S[3,4] RI
DATA S[4,1] RI
DATA S[4,2] RI
DATA S[4,3] RI
DATA S[4,4] RI
DATA S_50[1,1] RI
DATA S_50[1,2] RI
DATA S_50[1,3] RI
DATA S_50[1,4] RI
DATA S_50[2,1] RI
DATA S_50[2,2] RI
DATA S_50[2,3] RI
DATA S_50[2,4] RI
DATA S_50[3,1] RI
DATA S_50[3,2] RI
DATA S_50[3,3] RI
DATA S_50[3,4] RI
DATA S_50[4,1] RI
DATA S_50[4,2] RI
DATA S_50[4,3] RI
DATA S_50[4,4] RI
DATA S_Z0[1,1] RI
DATA S_Z0[1,2] RI
DATA S_Z0[1,3] RI
DATA S_Z0[1,4] RI
DATA S_Z0[2,1] RI
DATA S_Z0[2,2] RI
DATA S_Z0[2,3] RI
DATA S_Z0[2,4] RI
DATA S_Z0[3,1] RI
DATA S_Z0[3,2] RI
DATA S_Z0[3,3] RI
DATA S_Z0[3,4] RI
DATA S_Z0[4,1] RI
DATA S_Z0[4,2] RI
DATA S_Z0[4,3] RI
DATA S_Z0[4,4] RI
DATA Z0[1] RI
DATA Z0[2] RI
DATA Z0[3] RI
DATA Z0[4] RI
DATA PORTZ[1] RI
DATA PORTZ[2] RI
DATA PORTZ[3] RI
DATA PORTZ[4] RI

VAR_LIST_BEGIN
	 200000000
	 400000000
	 600000000
	 800000000
	 1000000000
	 1200000000
	 1400000000
	 1600000000
	 1800000000
	 2000000000
	 2200000000
	 2400000000
	 2600000000
	 2800000000
	 3000000000
	 3200000000
	 3400000000
	 3600000000
	 3800000000
	 4000000000
	 4200000000
	 4400000000
	 4600000000
	 4800000000
	 5000000000
	 5200000000
	 5400000000
	 5600000000
	 5800000000
	 6000000000
	 6200000000
	 6400000000
	 6600000000
	 6800000000
	 7000000000
	 7200000000
	 7400000000
	 7600000000
	 7800000000
	 8000000000
	 8200000000
	 8400000000
	 8600000000
	 8800000000
	 9000000000
	 9200000000
	 9400000000
	 9600000000
	 9800000000
	 1e+010
	 1.02e+010
	 1.04e+010
	 1.06e+010
	 1.08e+010
	 1.1e+010
	 1.12e+010
	 1.14e+010
	 1.16e+010
	 1.18e+010
	 1.2e+010
VAR_LIST_END

BEGIN
	 0.0404107049,	 0.0609887009
	 0.105746879,	 0.0510352683
	 0.125373441,	-0.00104808431
	 0.0991973442,	-0.0378589655
	 0.062903769,	-0.0392422886
	 0.0427416645,	-0.0167067288
	 0.0472341068,	 0.010653414
	 0.0731793535,	 0.0235694525
	 0.102076995,	 0.00683969535
	 0.104380481,	-0.0325096885
	 0.0687097704,	-0.0599564517
	 0.0226840672,	-0.0450271536
	 0.00954760411,	 0.00190654169
	 0.0408689663,	 0.0361901605
	 0.0829744312,	 0.0270802841
	 0.0949465979,	-0.0112255536
	 0.0697109742,	-0.0393480362
	 0.035038691,	-0.0337577372
	 0.0221047593,	-0.00521745244
	 0.0373299521,	 0.0167005194
	 0.0598574777,	 0.0120336136
	 0.0616901054,	-0.0115840298
	 0.0353074034,	-0.0246905238
	 0.00349395032,	-0.00372162719
	 0.00151783749,	 0.0424370317
	 0.0401292741,	 0.0756307551
	 0.0912400715,	 0.0666595017
	 0.114625523,	 0.0238238031
	 0.0965429525,	-0.0153037513
	 0.0599937587,	-0.0204566037
	 0.0405942778,	 0.00610557178
	 0.0560099608,	 0.0353323118
	 0.0932702383,	 0.0360425675
	 0.117788081,	-0.000154339543
	 0.100832956,	-0.0473462062
	 0.048302698,	-0.0638691965
	 0.00166459802,	-0.0310908437
	-0.000205069216,	 0.0237544289
	 0.0380021151,	 0.0538185055
	 0.0750626635,	 0.0422181544
	 0.0811832299,	 0.0153056621
	 0.0658636704,	 0.00570941488
	 0.0566601364,	 0.0174954307
	 0.0663509408,	 0.032949389
	 0.0898958132,	 0.0361257338
	 0.115425748,	 0.0188434956
	 0.125768052,	-0.019596039
	 0.101852514,	-0.0634804656
	 0.0443135184,	-0.076643454
	-0.00213890139,	-0.0347189137
	 0.012136555,	 0.0198350696
	 0.0552601159,	 0.0217372769
	 0.0596200857,	-0.0126747877
	 0.0236092639,	-0.023952361
	-0.00878606232,	 0.00609496303
	-0.00845564714,	 0.0551779218
	 0.0267049161,	 0.0943302591
	 0.0814678047,	 0.101451755
	 0.126756878,	 0.0694206971
	 0.134077941,	 0.0173176503
END
BEGIN
	 0.0800129273,	 0.128448967
	 0.24638904,	 0.129644684
	 0.375004592,	-0.00570968183
	 0.39012446,	-0.212552098
	 0.272386047,	-0.405190862
	 0.0554155402,	-0.504738207
	-0.18570171,	-0.469370257
	-0.368145762,	-0.313898657
	-0.441705517,	-0.0978041351
	-0.403659895,	 0.112682402
	-0.27983761,	 0.271603874
	-0.105006296,	 0.35213831
	 0.0799166303,	 0.342842987
	 0.233683885,	 0.25281275
	 0.327834925,	 0.107323545
	 0.347552346,	-0.064966941
	 0.28406553,	-0.23242614
	 0.140896763,	-0.353086283
	-0.0498010538,	-0.384858946
	-0.230727318,	-0.313005276
	-0.348543341,	-0.161504792
	-0.376452673,	 0.0244057019
	-0.312947945,	 0.198690889
	-0.174785515,	 0.320938991
	 0.00384388621,	 0.36172344
	 0.178018891,	 0.313718293
	 0.309364101,	 0.192387621
	 0.372905945,	 0.0231543145
	 0.350585796,	-0.163430565
	 0.234222989,	-0.322929472
	 0.0458740674,	-0.401812157
	-0.155842714,	-0.368886955
	-0.305866259,	-0.239774984
	-0.368590369,	-0.0621757875
	-0.341631191,	 0.116325377
	-0.238470704,	 0.260303918
	-0.0807665422,	 0.342068
	 0.0994214601,	 0.34318772
	 0.264983038,	 0.261372615
	 0.382392519,	 0.107766472
	 0.419647296,	-0.0965676101
	 0.348009255,	-0.309670817
	 0.166937167,	-0.465121351
	-0.0746442719,	-0.502791911
	-0.296935283,	-0.407723558
	-0.429357447,	-0.216522538
	-0.436144985,	 0.00297910075
	-0.323035413,	 0.17327872
	-0.143464744,	 0.22435576
	-0.00456605308,	 0.133564708
	-0.0101106998,	-0.0152986175
	-0.145078193,	-0.0789581848
	-0.289311281,	 0.00542494169
	-0.332995406,	 0.191423984
	-0.236307544,	 0.379726937
	-0.035270467,	 0.478703583
	 0.190078846,	 0.448573458
	 0.363717852,	 0.307719379
	 0.443673608,	 0.105957362
	 0.41959036,	-0.104934474
END
BEGIN
	 0.84111827,	-0.513594631
	 0.450469196,	-0.839170151
	-0.0147770313,	-0.916852796
	-0.432283034,	-0.775000972
	-0.724906519,	-0.475369177
	-0.852572738,	-0.0897514538
	-0.800448188,	 0.311393568
	-0.571642843,	 0.65456477
	-0.19954431,	 0.860812937
	 0.239835926,	 0.867047556
	 0.639843355,	 0.654205686
	 0.890164564,	 0.261687516
	 0.910938383,	-0.211932856
	 0.689625097,	-0.63368438
	 0.290325763,	-0.887281255
	-0.176686779,	-0.91218318
	-0.593051833,	-0.709816153
	-0.858477262,	-0.334971997
	-0.911459637,	 0.118412169
	-0.742373061,	 0.54055766
	-0.392758754,	 0.83147298
	 0.0554909923,	 0.921098918
	 0.495891783,	 0.783127646
	 0.816846579,	 0.444921939
	 0.930423667,	-0.00997811892
	 0.805080384,	-0.460264115
	 0.478326372,	-0.788372959
	 0.038754528,	-0.915963643
	-0.403984617,	-0.818119978
	-0.743961677,	-0.522840031
	-0.901812271,	-0.103407178
	-0.842136288,	 0.340033766
	-0.578914526,	 0.703407419
	-0.171789424,	 0.899925492
	 0.285947022,	 0.877869349
	 0.682546036,	 0.632367458
	 0.909133438,	 0.216204751
	 0.895428576,	-0.260232952
	 0.645220259,	-0.661398875
	 0.236275398,	-0.879486233
	-0.214595093,	-0.868123245
	-0.590519088,	-0.647513343
	-0.809697849,	-0.290238676
	-0.842816581,	 0.113360612
	-0.699094663,	 0.485119322
	-0.406262548,	 0.761466744
	-0.00809738966,	 0.88649462
	 0.42865943,	 0.813899247
	 0.805186643,	 0.519204699
	 0.988053011,	 0.0371339532
	 0.870446746,	-0.486857489
	 0.486422943,	-0.852970421
	-0.00844182019,	-0.952952789
	-0.456766803,	-0.799688235
	-0.757848309,	-0.472014094
	-0.871074889,	-0.0638625888
	-0.793997985,	 0.34140329
	-0.546396577,	 0.66925594
	-0.173841161,	 0.852670569
	 0.249907424,	 0.845295173
END
BEGIN
	-0.0187889944,	-0.00924132692
	-0.0313259124,	 0.0220930126
	 0.00297482196,	 0.0512119632
	 0.0516214482,	 0.0315026525
	 0.0617415781,	-0.0246526387
	 0.0197300611,	-0.0666943621
	-0.0394185245,	-0.0573389384
	-0.0661536505,	-0.00549108133
	-0.0415132694,	 0.0433482554
	 0.00732288892,	 0.0505674285
	 0.0362518544,	 0.0184675164
	 0.0252435084,	-0.0172094074
	-0.00723933812,	-0.0229632803
	-0.0251746714,	 0.00266212167
	-0.00959537012,	 0.0312279279
	 0.0262776213,	 0.0323482809
	 0.0496431788,	-5.32435441e-005
	 0.0362558057,	-0.0411742615
	-0.0057370137,	-0.0558324152
	-0.0417077071,	-0.0325065977
	-0.044867824,	 0.00575198951
	-0.0209427179,	 0.0264157104
	 0.00165873519,	 0.0189913226
	 0.00106049346,	 0.00172865641
	-0.0165551246,	 0.00212332519
	-0.0229351025,	 0.0268942488
	 0.00205655392,	 0.05316144
	 0.0489328768,	 0.0490973878
	 0.0826810612,	 0.00320196905
	 0.0696082966,	-0.0603758639
	 0.00970954803,	-0.0956564127
	-0.0568188609,	-0.0748764979
	-0.08448781,	-0.0157270241
	-0.0628537871,	 0.0370144855
	-0.0194973196,	 0.0526754963
	 0.00923340812,	 0.0356643696
	 0.00894595612,	 0.015413154
	-0.00339086552,	 0.0170191312
	 0.00155740672,	 0.037085777
	 0.0350508102,	 0.046611071
	 0.0752723373,	 0.0184307092
	 0.0821166162,	-0.0426665209
	 0.0356448426,	-0.0952498548
	-0.0384475665,	-0.0968181103
	-0.0896563703,	-0.0443493874
	-0.0863773392,	 0.0238656864
	-0.040275537,	 0.0610981795
	 0.0045256501,	 0.0510723293
	 0.0131027079,	 0.0244976171
	 0.00367216691,	 0.0238694285
	 0.0201089765,	 0.0349709456
	 0.0452040629,	 0.0141859359
	 0.0356609964,	-0.0186721786
	 0.0085239102,	-0.0206025598
	 0.00630735787,	-0.000895706372
	 0.0308910508,	-0.00111923862
	 0.0438910855,	-0.0377091785
	 0.0118508969,	-0.0820899419
	-0.0575787311,	-0.0872900325
	-0.117354911,	-0.0310271432
END
BEGIN
	 0.0800129273,	 0.128448967
	 0.24638904,	 0.129644684
	 0.375004592,	-0.00570968183
	 0.39012446,	-0.212552098
	 0.272386047,	-0.405190862
	 0.0554155402,	-0.504738207
	-0.18570171,	-0.469370257
	-0.368145762,	-0.313898657
	-0.441705517,	-0.0978041351
	-0.403659895,	 0.112682402
	-0.27983761,	 0.271603874
	-0.105006296,	 0.35213831
	 0.0799166303,	 0.342842987
	 0.233683885,	 0.25281275
	 0.327834925,	 0.107323545
	 0.347552346,	-0.064966941
	 0.28406553,	-0.23242614
	 0.140896763,	-0.353086283
	-0.0498010538,	-0.384858946
	-0.230727318,	-0.313005276
	-0.348543341,	-0.161504792
	-0.376452673,	 0.0244057019
	-0.312947945,	 0.198690889
	-0.174785515,	 0.320938991
	 0.00384388621,	 0.36172344
	 0.178018891,	 0.313718293
	 0.309364101,	 0.192387621
	 0.372905945,	 0.0231543145
	 0.350585796,	-0.163430565
	 0.234222989,	-0.322929472
	 0.0458740674,	-0.401812157
	-0.155842714,	-0.368886955
	-0.305866259,	-0.239774984
	-0.368590369,	-0.0621757875
	-0.341631191,	 0.116325377
	-0.238470704,	 0.260303918
	-0.0807665422,	 0.342068
	 0.0994214601,	 0.34318772
	 0.264983038,	 0.261372615
	 0.382392519,	 0.107766472
	 0.419647296,	-0.0965676101
	 0.348009255,	-0.309670817
	 0.166937167,	-0.465121351
	-0.0746442719,	-0.502791911
	-0.296935283,	-0.407723558
	-0.429357447,	-0.216522538
	-0.436144985,	 0.00297910075
	-0.323035413,	 0.17327872
	-0.143464744,	 0.22435576
	-0.00456605308,	 0.133564708
	-0.0101106998,	-0.0152986175
	-0.145078193,	-0.0789581848
	-0.289311281,	 0.00542494169
	-0.332995406,	 0.191423984
	-0.236307544,	 0.379726937
	-0.035270467,	 0.478703583
	 0.190078846,	 0.448573458
	 0.363717852,	 0.307719379
	 0.443673608,	 0.105957362
	 0.41959036,	-0.104934474
END
BEGIN
	 0.0404267291,	 0.0609788827
	 0.105773233,	 0.0509737819
	 0.125356615,	-0.00117618292
	 0.0990857863,	-0.0380195495
	 0.0626777518,	-0.0393749416
	 0.0424208743,	-0.0167473904
	 0.0468465913,	 0.0107622166
	 0.0728131388,	 0.0238707498
	 0.101845829,	 0.00731995068
	 0.104379348,	-0.0319475378
	 0.0689407068,	-0.0594590093
	 0.0230362074,	-0.0446945202
	 0.00988474818,	 0.00206670127
	 0.0411068583,	 0.0363185331
	 0.083190642,	 0.0273271079
	 0.0953361488,	-0.0108320866
	 0.0704625026,	-0.0389584292
	 0.0362036866,	-0.0336651123
	 0.023520631,	-0.00572819188
	 0.0386402815,	 0.0153844381
	 0.0605837166,	 0.0099392908
	 0.0613802775,	-0.0141205975
	 0.0336593847,	-0.0271061915
	 0.000646689648,	-0.00523988979
	-0.00191727167,	 0.0423553972
	 0.0369567307,	 0.0773061249
	 0.089200868,	 0.0696394375
	 0.114200582,	 0.0273266219
	 0.0976972603,	-0.0121582209
	 0.0622433824,	-0.0183413165
	 0.0432244777,	 0.00690362046
	 0.0583120263,	 0.0349569408
	 0.0947941835,	 0.0349550198
	 0.118442329,	-0.00123895901
	 0.101014766,	-0.0479793244
	 0.0486037974,	-0.0640020751
	 0.00250350673,	-0.0311516399
	 0.00108304981,	 0.0231772677
	 0.039138144,	 0.052292137
	 0.0753606675,	 0.0400151812
	 0.0803213871,	 0.013098845
	 0.0640688309,	 0.00418808905
	 0.0545005818,	 0.0169985794
	 0.0643889984,	 0.0334013858
	 0.0884985069,	 0.0372319913
	 0.114771234,	 0.0202176518
	 0.125837596,	-0.01838877
	 0.102346768,	-0.0628610546
	 0.0445913215,	-0.0767624185
	-0.00275371719,	-0.0350481887
	 0.0107285402,	 0.0203716456
	 0.05413529,	 0.0236736886
	 0.0597847836,	-0.00991640342
	 0.0253763209,	-0.0214437911
	-0.00590403874,	 0.00759714093
	-0.00507412034,	 0.0553478541
	 0.0300575689,	 0.0931048531
	 0.084138281,	 0.0989295524
	 0.128242965,	 0.0659567573
	 0.134038359,	 0.0135583974
END
BEGIN
	-0.0187944036,	-0.00923469466
	-0.0313207604,	 0.0221240543
	 0.00302729437,	 0.0512483692
	 0.0517231718,	 0.031486977
	 0.0618350451,	-0.0247666068
	 0.0197249897,	-0.0668871307
	-0.0395858771,	-0.057526749
	-0.066460248,	-0.00553697088
	-0.0418318487,	 0.0435382926
	 0.00717172283,	 0.0509737286
	 0.036404445,	 0.0189414376
	 0.0256995404,	-0.0168958891
	-0.00661002377,	-0.0229970116
	-0.0246409535,	 0.00221379101
	-0.00941843287,	 0.0304819616
	 0.0259478818,	 0.0315755695
	 0.0488519972,	-0.000515720087
	 0.0352711602,	-0.0410627138
	-0.0065079645,	-0.0551064269
	-0.0419030089,	-0.0314044353
	-0.0443479445,	 0.00680374969
	-0.0198655574,	 0.0269871381
	 0.00292016654,	 0.0188015186
	 0.00199933068,	 0.000796867453
	-0.0163209878,	 0.000784627911
	-0.0235750095,	 0.0256503816
	 0.000774829629,	 0.0525195054
	 0.0474812734,	 0.0493491226
	 0.0816447324,	 0.00430807167
	 0.0694665531,	-0.0588306496
	 0.0105739002,	-0.0943454143
	-0.0553252426,	-0.074405535
	-0.083038915,	-0.0162914597
	-0.0621210784,	 0.0356996594
	-0.0197533391,	 0.0512312256
	 0.00814656684,	 0.0347334523
	 0.00754818546,	 0.0153932438
	-0.0044730553,	 0.0178894384
	 0.00131906437,	 0.0384095849
	 0.0357313012,	 0.0477517369
	 0.0765261073,	 0.0188286766
	 0.083296768,	-0.0432030914
	 0.0361485141,	-0.0964109944
	-0.0388364271,	-0.0979789336
	-0.0906763228,	-0.0449338445
	-0.0874690229,	 0.0240939427
	-0.0408852946,	 0.0619351601
	 0.00464269001,	 0.0519744077
	 0.0136613805,	 0.0249182764
	 0.00404274505,	 0.0238001658
	 0.0200940389,	 0.0350117762
	 0.0453686301,	 0.014662679
	 0.0365062833,	-0.0182670183
	 0.00976010661,	-0.0210108674
	 0.00712953947,	-0.00229376762
	 0.0305896514,	-0.00299982475
	 0.0422867268,	-0.0391943686
	 0.00944438338,	-0.0823016227
	-0.0598367973,	-0.0858789169
	-0.118407176,	-0.0283118317
END
BEGIN
	 0.841116059,	-0.513598075
	 0.450462307,	-0.839173635
	-0.0147880183,	-0.916852548
	-0.432295611,	-0.774994206
	-0.724916672,	-0.475354477
	-0.852575223,	-0.0897300042
	-0.800438588,	 0.311417155
	-0.571620228,	 0.654583001
	-0.199512486,	 0.860818748
	 0.239869992,	 0.867036677
	 0.63987125,	 0.654177515
	 0.890178051,	 0.261644024
	 0.910927414,	-0.211980048
	 0.689589809,	-0.633722793
	 0.290272864,	-0.88729863
	-0.176744805,	-0.912172645
	-0.593101274,	-0.709776941
	-0.858503399,	-0.334909484
	-0.911450809,	 0.118484436
	-0.742326568,	 0.540618713
	-0.39268525,	 0.831502599
	 0.0555689012,	 0.921086609
	 0.495954999,	 0.78308086
	 0.816882546,	 0.444852639
	 0.930431866,	-0.0100499517
	 0.805048951,	-0.460344837
	 0.478254232,	-0.788437892
	 0.0386484241,	-0.915986497
	-0.404095258,	-0.818080505
	-0.744036945,	-0.522744135
	-0.901826818,	-0.103287051
	-0.842092942,	 0.340143458
	-0.578829589,	 0.703488474
	-0.171670363,	 0.89996565
	 0.286087,	 0.87784835
	 0.682668677,	 0.632265514
	 0.909181802,	 0.216039773
	 0.895371807,	-0.260403673
	 0.645091847,	-0.661505235
	 0.236120306,	-0.879516581
	-0.214747056,	-0.868083384
	-0.590644321,	-0.647403853
	-0.80975751,	-0.290068144
	-0.842773443,	 0.113547088
	-0.698952772,	 0.485253143
	-0.406075634,	 0.761498113
	-0.00793652633,	 0.886425986
	 0.42875384,	 0.81377773
	 0.805222494,	 0.519073041
	 0.988045072,	 0.0369959411
	 0.870372918,	-0.486997775
	 0.486273598,	-0.853059469
	-0.00861700235,	-0.952949808
	-0.456904277,	-0.799602689
	-0.75793108,	-0.471889043
	-0.871107858,	-0.0637162895
	-0.793968355,	 0.341566108
	-0.546282937,	 0.669408339
	-0.173644289,	 0.852751062
	 0.250129488,	 0.845252417
END
BEGIN
	 0.84111827,	-0.513594631
	 0.450469196,	-0.839170151
	-0.0147770313,	-0.916852796
	-0.432283034,	-0.775000972
	-0.724906519,	-0.475369177
	-0.852572738,	-0.0897514538
	-0.800448188,	 0.311393568
	-0.571642843,	 0.65456477
	-0.19954431,	 0.860812937
	 0.239835926,	 0.867047556
	 0.639843355,	 0.654205686
	 0.890164564,	 0.261687516
	 0.910938383,	-0.211932856
	 0.689625097,	-0.63368438
	 0.290325763,	-0.887281255
	-0.176686779,	-0.91218318
	-0.593051833,	-0.709816153
	-0.858477262,	-0.334971997
	-0.911459637,	 0.118412169
	-0.742373061,	 0.54055766
	-0.392758754,	 0.83147298
	 0.0554909923,	 0.921098918
	 0.495891783,	 0.783127646
	 0.816846579,	 0.444921939
	 0.930423667,	-0.00997811892
	 0.805080384,	-0.460264115
	 0.478326372,	-0.788372959
	 0.038754528,	-0.915963643
	-0.403984617,	-0.818119978
	-0.743961677,	-0.522840031
	-0.901812271,	-0.103407178
	-0.842136288,	 0.340033766
	-0.578914526,	 0.703407419
	-0.171789424,	 0.899925492
	 0.285947022,	 0.877869349
	 0.682546036,	 0.632367458
	 0.909133438,	 0.216204751
	 0.895428576,	-0.260232952
	 0.645220259,	-0.661398875
	 0.236275398,	-0.879486233
	-0.214595093,	-0.868123245
	-0.590519088,	-0.647513343
	-0.809697849,	-0.290238676
	-0.842816581,	 0.113360612
	-0.699094663,	 0.485119322
	-0.406262548,	 0.761466744
	-0.00809738966,	 0.88649462
	 0.42865943,	 0.813899247
	 0.805186643,	 0.519204699
	 0.988053011,	 0.0371339532
	 0.870446746,	-0.486857489
	 0.486422943,	-0.852970421
	-0.00844182019,	-0.952952789
	-0.456766803,	-0.799688235
	-0.757848309,	-0.472014094
	-0.871074889,	-0.0638625888
	-0.793997985,	 0.34140329
	-0.546396577,	 0.66925594
	-0.173841161,	 0.852670569
	 0.249907424,	 0.845295173
END
BEGIN
	-0.0187944036,	-0.00923469466
	-0.0313207604,	 0.0221240543
	 0.00302729437,	 0.0512483692
	 0.0517231718,	 0.031486977
	 0.0618350451,	-0.0247666068
	 0.0197249897,	-0.0668871307
	-0.0395858771,	-0.057526749
	-0.066460248,	-0.00553697088
	-0.0418318487,	 0.0435382926
	 0.00717172283,	 0.0509737286
	 0.036404445,	 0.0189414376
	 0.0256995404,	-0.0168958891
	-0.00661002377,	-0.0229970116
	-0.0246409535,	 0.00221379101
	-0.00941843287,	 0.0304819616
	 0.0259478818,	 0.0315755695
	 0.0488519972,	-0.000515720087
	 0.0352711602,	-0.0410627138
	-0.0065079645,	-0.0551064269
	-0.0419030089,	-0.0314044353
	-0.0443479445,	 0.00680374969
	-0.0198655574,	 0.0269871381
	 0.00292016654,	 0.0188015186
	 0.00199933068,	 0.000796867453
	-0.0163209878,	 0.000784627911
	-0.0235750095,	 0.0256503816
	 0.000774829629,	 0.0525195054
	 0.0474812734,	 0.0493491226
	 0.0816447324,	 0.00430807167
	 0.0694665531,	-0.0588306496
	 0.0105739002,	-0.0943454143
	-0.0553252426,	-0.074405535
	-0.083038915,	-0.0162914597
	-0.0621210784,	 0.0356996594
	-0.0197533391,	 0.0512312256
	 0.00814656684,	 0.0347334523
	 0.00754818546,	 0.0153932438
	-0.0044730553,	 0.0178894384
	 0.00131906437,	 0.0384095849
	 0.0357313012,	 0.0477517369
	 0.0765261073,	 0.0188286766
	 0.083296768,	-0.0432030914
	 0.0361485141,	-0.0964109944
	-0.0388364271,	-0.0979789336
	-0.0906763228,	-0.0449338445
	-0.0874690229,	 0.0240939427
	-0.0408852946,	 0.0619351601
	 0.00464269001,	 0.0519744077
	 0.0136613805,	 0.0249182764
	 0.00404274505,	 0.0238001658
	 0.0200940389,	 0.0350117762
	 0.0453686301,	 0.014662679
	 0.0365062833,	-0.0182670183
	 0.00976010661,	-0.0210108674
	 0.00712953947,	-0.00229376762
	 0.0305896514,	-0.00299982475
	 0.0422867268,	-0.0391943686
	 0.00944438338,	-0.0823016227
	-0.0598367973,	-0.0858789169
	-0.118407176,	-0.0283118317
END
BEGIN
	 0.0404115953,	 0.0609866913
	 0.105744392,	 0.0510243607
	 0.125357791,	-0.00107467712
	 0.099147663,	-0.0379119687
	 0.0627708702,	-0.0393192946
	 0.0424775509,	-0.016748448
	 0.0467941339,	 0.0107730209
	 0.0726899244,	 0.0239959921
	 0.101769438,	 0.00760024436
	 0.104464629,	-0.0315954497
	 0.0691837018,	-0.0591980887
	 0.0232790938,	-0.0446326701
	 0.00994686906,	 0.00205528218
	 0.0409697242,	 0.0364463544
	 0.0830541004,	 0.0277458756
