CITIFILE A.01.01
#Momentum: B.09.00.071 (*) 370.503 Feb 14 2011 
#Momentum Date and Time: Tue Feb 15 12:42:31 2011

NAME Momentum.SP

#  mode: MW    project: proj    reference: S_50

CONSTANT NBR_OF_PORTS 4

CONSTANT NORMALIZATION 1

VAR freq MAG 9

DATA S[1,1] RI
DATA S[1,2] RI
DATA S[1,3] RI
DATA S[1,4] RI
DATA S[2,1] RI
DATA S[2,2] RI
DATA S[2,3] RI
DATA S[2,4] RI
DATA S[3,1] RI
DATA S[3,2] RI
DATA S[3,3] RI
DATA S[3,4] RI
DATA S[4,1] RI
DATA S[4,2] RI
DATA S[4,3] RI
DATA S[4,4] RI
DATA S_50[1,1] RI
DATA S_50[1,2] RI
DATA S_50[1,3] RI
DATA S_50[1,4] RI
DATA S_50[2,1] RI
DATA S_50[2,2] RI
DATA S_50[2,3] RI
DATA S_50[2,4] RI
DATA S_50[3,1] RI
DATA S_50[3,2] RI
DATA S_50[3,3] RI
DATA S_50[3,4] RI
DATA S_50[4,1] RI
DATA S_50[4,2] RI
DATA S_50[4,3] RI
DATA S_50[4,4] RI
DATA S_Z0[1,1] RI
DATA S_Z0[1,2] RI
DATA S_Z0[1,3] RI
DATA S_Z0[1,4] RI
DATA S_Z0[2,1] RI
DATA S_Z0[2,2] RI
DATA S_Z0[2,3] RI
DATA S_Z0[2,4] RI
DATA S_Z0[3,1] RI
DATA S_Z0[3,2] RI
DATA S_Z0[3,3] RI
DATA S_Z0[3,4] RI
DATA S_Z0[4,1] RI
DATA S_Z0[4,2] RI
DATA S_Z0[4,3] RI
DATA S_Z0[4,4] RI
DATA Z0[1] RI
DATA Z0[2] RI
DATA Z0[3] RI
DATA Z0[4] RI
DATA PORTZ[1] RI
DATA PORTZ[2] RI
DATA PORTZ[3] RI
DATA PORTZ[4] RI

VAR_LIST_BEGIN
	 9000000000
	 9250000000
	 9500000000
	 9750000000
	 1e+010
	 1.025e+010
	 1.05e+010
	 1.083333333e+010
	 1.1e+010
VAR_LIST_END

BEGIN
	-0.530262888,	-0.202471322
	-0.395704415,	 0.134969144
	-0.117645066,	 0.248391366
	 0.0746833525,	 0.134823211
	 0.049942269,	-0.0363663904
	-0.148823082,	-0.0413938823
	-0.261897922,	 0.219780304
	 0.0458812204,	 0.585981233
	 0.309778628,	 0.609849
END
BEGIN
	-0.0472579388,	 0.0200086459
	-0.011751684,	 0.0565263424
	 0.0464216421,	 0.0416827492
	 0.0642889965,	-0.0243288719
	 0.00729852388,	-0.0790798117
	-0.0784517161,	-0.0452496273
	-0.0751753433,	 0.051799133
	 0.0266049861,	 0.0659590813
	 0.0469664348,	 0.0332993436
END
BEGIN
	-0.0225687149,	-0.0253011448
	-0.0411263554,	 0.0119577995
	-0.00699655499,	 0.0505681294
	 0.0494583559,	 0.0308563932
	 0.0525709087,	-0.0365751607
	-0.015291919,	-0.0626727243
	-0.0554213687,	-0.00757715051
	-0.0093062264,	 0.0357384753
	 0.0107925369,	 0.0262290833
END
BEGIN
	 0.0192300846,	-0.0214878597
	-0.0181300257,	-0.0311692348
	-0.0406153783,	 0.0095061384
	-0.00314141417,	 0.0456178614
	 0.0450109974,	 0.0163889549
	 0.0258900783,	-0.0379317094
	-0.0250556488,	-0.029384289
	-0.0188219665,	 0.0175073682
	-0.0016937974,	 0.0198501599
END
BEGIN
	-0.0472579388,	 0.0200086459
	-0.011751684,	 0.0565263424
	 0.0464216421,	 0.0416827492
	 0.0642889964,	-0.024328872
	 0.00729852392,	-0.0790798116
	-0.0784517161,	-0.0452496273
	-0.0751753432,	 0.051799133
	 0.0266049861,	 0.0659590813
	 0.0469664344,	 0.0332993436
END
BEGIN
	-0.533232485,	-0.200353883
	-0.395077037,	 0.140565062
	-0.109535578,	 0.250857129
	 0.0818262569,	 0.124903169
	 0.0392532464,	-0.0490260961
	-0.165759055,	-0.0312541321
	-0.254355177,	 0.237153939
	 0.0558846273,	 0.578948809
	 0.311538049,	 0.601336179
END
BEGIN
	-0.0492728479,	 0.0169006935
	-0.0168297022,	 0.0589049304
	 0.0486489358,	 0.0488594964
	 0.0735294329,	-0.0256343008
	 0.00724258354,	-0.0899927713
	-0.0896147916,	-0.046067218
	-0.0765947896,	 0.0610148703
	 0.031927254,	 0.0655860193
	 0.0494995802,	 0.0305003491
END
BEGIN
	-0.0219589489,	-0.0272797582
	-0.0437729535,	 0.0104977851
	-0.00952403752,	 0.0536540792
	 0.0526602388,	 0.034577569
	 0.0573181697,	-0.0396670791
	-0.0180043362,	-0.0678089012
	-0.0601759111,	-0.00566588432
	-0.00716731389,	 0.0385810716
	 0.0135855506,	 0.0264329404
END
BEGIN
	-0.0225687149,	-0.0253011448
	-0.0411263554,	 0.0119577995
	-0.00699655499,	 0.0505681294
	 0.0494583559,	 0.0308563932
	 0.0525709087,	-0.0365751607
	-0.015291919,	-0.0626727243
	-0.0554213687,	-0.0075771505
	-0.0093062264,	 0.0357384753
	 0.0107925369,	 0.0262290833
END
BEGIN
	-0.0492728479,	 0.0169006935
	-0.0168297022,	 0.0589049304
	 0.0486489358,	 0.0488594964
	 0.0735294329,	-0.0256343008
	 0.0072425835,	-0.0899927714
	-0.0896147916,	-0.046067218
	-0.0765947896,	 0.0610148703
	 0.031927254,	 0.0655860193
	 0.0494995802,	 0.0305003491
END
BEGIN
	-0.535812178,	-0.20579406
	-0.403722104,	 0.138689589
	-0.117606571,	 0.258393069
	 0.0836419474,	 0.136659623
	 0.0491337473,	-0.0443297217
	-0.1584548,	-0.0348081877
	-0.25185059,	 0.232479792
	 0.0554791804,	 0.574857549
	 0.309787204,	 0.597900953
END
BEGIN
	-0.0481869174,	 0.0186744186
	-0.0145499755,	 0.0568937107
	 0.0454053543,	 0.0460332408
	 0.0698800333,	-0.0210857917
	 0.0130616326,	-0.0852704962
	-0.0842212585,	-0.0528433704
	-0.0831653052,	 0.0559565607
	 0.030676995,	 0.0710489337
	 0.052111603,	 0.0336545006
END
BEGIN
	 0.0192300846,	-0.0214878597
	-0.0181300257,	-0.0311692348
	-0.0406153783,	 0.0095061384
	-0.00314141417,	 0.0456178614
	 0.0450109974,	 0.0163889549
	 0.0258900783,	-0.0379317094
	-0.0250556488,	-0.029384289
	-0.0188219665,	 0.0175073682
	-0.00169379741,	 0.0198501599
END
BEGIN
	-0.0219589489,	-0.0272797582
	-0.0437729535,	 0.0104977851
	-0.00952403751,	 0.0536540792
	 0.0526602388,	 0.034577569
	 0.0573181698,	-0.0396670791
	-0.0180043362,	-0.0678089012
	-0.0601759111,	-0.00566588432
	-0.00716731389,	 0.0385810716
	 0.0135855506,	 0.0264329404
END
BEGIN
	-0.0481869174,	 0.0186744186
	-0.0145499755,	 0.0568937106
	 0.0454053543,	 0.0460332407
	 0.0698800333,	-0.0210857917
	 0.0130616326,	-0.0852704962
	-0.0842212585,	-0.0528433704
	-0.0831653052,	 0.0559565607
	 0.030676995,	 0.0710489337
	 0.052111603,	 0.0336545006
END
BEGIN
	-0.535007633,	-0.204654138
	-0.401093107,	 0.136876245
	-0.120342318,	 0.253746259
	 0.0770454303,	 0.140081471
	 0.053695798,	-0.0361285164
	-0.149646742,	-0.0415417983
	-0.260053299,	 0.224676761
	 0.0534314081,	 0.583014651
	 0.313620994,	 0.602922249
END
BEGIN
	-0.530262888,	-0.202471322
	-0.395704415,	 0.134969144
	-0.117645066,	 0.248391366
	 0.0746833525,	 0.134823211
	 0.049942269,	-0.0363663904
	-0.148823082,	-0.0413938823
	-0.261897922,	 0.219780304
	 0.0458812204,	 0.585981233
	 0.309778628,	 0.609849
END
BEGIN
	-0.0472579388,	 0.0200086459
	-0.011751684,	 0.0565263424
	 0.0464216421,	 0.0416827492
	 0.0642889965,	-0.0243288719
	 0.00729852388,	-0.0790798117
	-0.0784517161,	-0.0452496273
	-0.0751753433,	 0.051799133
	 0.0266049861,	 0.0659590813
	 0.0469664348,	 0.0332993436
END
BEGIN
	-0.0225687149,	-0.0253011448
	-0.0411263554,	 0.0119577995
	-0.00699655499,	 0.0505681294
	 0.0494583559,	 0.0308563932
	 0.0525709087,	-0.0365751607
	-0.015291919,	-0.0626727243
	-0.0554213687,	-0.00757715051
	-0.0093062264,	 0.0357384753
	 0.0107925369,	 0.0262290833
END
BEGIN
	 0.0192300846,	-0.0214878597
	-0.0181300257,	-0.0311692348
	-0.0406153783,	 0.0095061384
	-0.00314141417,	 0.0456178614
	 0.0450109974,	 0.0163889549
	 0.0258900783,	-0.0379317094
	-0.0250556488,	-0.029384289
	-0.0188219665,	 0.0175073682
	-0.0016937974,	 0.0198501599
END
BEGIN
	-0.0472579388,	 0.0200086459
	-0.011751684,	 0.0565263424
	 0.0464216421,	 0.0416827492
	 0.0642889964,	-0.024328872
	 0.00729852392,	-0.0790798116
	-0.0784517161,	-0.0452496273
	-0.0751753432,	 0.051799133
	 0.0266049861,	 0.0659590813
	 0.0469664344,	 0.0332993436
END
BEGIN
	-0.533232485,	-0.200353883
	-0.395077037,	 0.140565062
	-0.109535578,	 0.250857129
	 0.0818262569,	 0.124903169
	 0.0392532464,	-0.0490260961
	-0.165759055,	-0.0312541321
	-0.254355177,	 0.237153939
	 0.0558846273,	 0.578948809
	 0.311538049,	 0.601336179
END
BEGIN
	-0.0492728479,	 0.0169006935
	-0.0168297022,	 0.0589049304
	 0.0486489358,	 0.0488594964
	 0.0735294329,	-0.0256343008
	 0.00724258354,	-0.0899927713
	-0.0896147916,	-0.046067218
	-0.0765947896,	 0.0610148703
	 0.031927254,	 0.0655860193
	 0.0494995802,	 0.0305003491
END
BEGIN
	-0.0219589489,	-0.0272797582
	-0.0437729535,	 0.0104977851
	-0.00952403752,	 0.0536540792
	 0.0526602388,	 0.034577569
	 0.0573181697,	-0.0396670791
	-0.0180043362,	-0.0678089012
	-0.0601759111,	-0.00566588432
	-0.00716731389,	 0.0385810716
	 0.0135855506,	 0.0264329404
END
BEGIN
	-0.0225687149,	-0.0253011448
	-0.0411263554,	 0.0119577995
	-0.00699655499,	 0.0505681294
	 0.0494583559,	 0.0308563932
	 0.0525709087,	-0.0365751607
	-0.015291919,	-0.0626727243
	-0.0554213687,	-0.0075771505
	-0.0093062264,	 0.0357384753
	 0.0107925369,	 0.0262290833
END
BEGIN
	-0.0492728479,	 0.0169006935
	-0.0168297022,	 0.0589049304
	 0.0486489358,	 0.0488594964
	 0.0735294329,	-0.0256343008
	 0.0072425835,	-0.0899927714
	-0.0896147916,	-0.046067218
	-0.0765947896,	 0.0610148703
	 0.031927254,	 0.0655860193
	 0.0494995802,	 0.0305003491
END
BEGIN
	-0.535812178,	-0.20579406
	-0.403722104,	 0.138689589
	-0.117606571,	 0.258393069
	 0.0836419474,	 0.136659623
	 0.0491337473,	-0.0443297217
	-0.1584548,	-0.0348081877
	-0.25185059,	 0.232479792
	 0.0554791804,	 0.574857549
	 0.309787204,	 0.597900953
END
BEGIN
	-0.0481869174,	 0.0186744186
	-0.0145499755,	 0.0568937107
	 0.0454053543,	 0.0460332408
	 0.0698800333,	-0.0210857917
	 0.0130616326,	-0.0852704962
	-0.0842212585,	-0.0528433704
	-0.0831653052,	 0.0559565607
	 0.030676995,	 0.0710489337
	 0.052111603,	 0.0336545006
END
BEGIN
	 0.0192300846,	-0.0214878597
	-0.0181300257,	-0.0311692348
	-0.0406153783,	 0.0095061384
	-0.00314141417,	 0.0456178614
	 0.0450109974,	 0.0163889549
	 0.0258900783,	-0.0379317094
	-0.0250556488,	-0.029384289
	-0.0188219665,	 0.0175073682
	-0.00169379741,	 0.0198501599
END
BEGIN
	-0.0219589489,	-0.0272797582
	-0.0437729535,	 0.0104977851
	-0.00952403751,	 0.0536540792
	 0.0526602388,	 0.034577569
	 0.0573181698,	-0.0396670791
	-0.0180043362,	-0.0678089012
	-0.0601759111,	-0.00566588432
	-0.00716731389,	 0.0385810716
	 0.0135855506,	 0.0264329404
END
BEGIN
	-0.0481869174,	 0.0186744186
	-0.0145499755,	 0.0568937106
	 0.0454053543,	 0.0460332407
	 0.0698800333,	-0.0210857917
	 0.0130616326,	-0.0852704962
	-0.0842212585,	-0.0528433704
	-0.0831653052,	 0.0559565607
	 0.030676995,	 0.0710489337
	 0.052111603,	 0.0336545006
END
BEGIN
	-0.535007633,	-0.204654138
	-0.401093107,	 0.136876245
	-0.120342318,	 0.253746259
	 0.0770454303,	 0.140081471
	 0.053695798,	-0.0361285164
	-0.149646742,	-0.0415417983
	-0.260053299,	 0.224676761
	 0.0534314081,	 0.583014651
	 0.313620994,	 0.602922249
END
BEGIN
	-0.530262888,	-0.202471322
	-0.395704415,	 0.134969144
	-0.117645066,	 0.248391366
	 0.0746833525,	 0.134823211
	 0.049942269,	-0.0363663904
	-0.148823082,	-0.0413938823
	-0.261897922,	 0.219780304
	 0.0458812204,	 0.585981233
	 0.309778628,	 0.609849
END
BEGIN
	-0.0472579388,	 0.0200086459
	-0.011751684,	 0.0565263424
	 0.0464216421,	 0.0416827492
	 0.0642889965,	-0.0243288719
	 0.00729852388,	-0.0790798117
	-0.0784517161,	-0.0452496273
	-0.0751753433,	 0.051799133
	 0.0266049861,	 0.0659590813
	 0.0469664348,	 0.0332993436
END
BEGIN
	-0.0225687149,	-0.0253011448
	-0.0411263554,	 0.0119577995
	-0.00699655499,	 0.0505681294
	 0.0494583559,	 0.0308563932
	 0.0525709087,	-0.0365751607
	-0.015291919,	-0.0626727243
	-0.0554213687,	-0.00757715051
	-0.0093062264,	 0.0357384753
	 0.0107925369,	 0.0262290833
END
BEGIN
	 0.0192300846,	-0.0214878597
	-0.0181300257,	-0.0311692348
	-0.0406153783,	 0.0095061384
	-0.00314141417,	 0.0456178614
	 0.0450109974,	 0.0163889549
	 0.0258900783,	-0.0379317094
	-0.0250556488,	-0.029384289
	-0.0188219665,	 0.0175073682
	-0.0016937974,	 0.0198501599
END
BEGIN
	-0.0472579388,	 0.0200086459
	-0.011751684,	 0.0565263424
	 0.0464216421,	 0.0416827492
	 0.0642889964,	-0.024328872
	 0.00729852392,	-0.0790798116
	-0.0784517161,	-0.0452496273
	-0.0751753432,	 0.051799133
	 0.0266049861,	 0.0659590813
	 0.0469664344,	 0.0332993436
END
BEGIN
	-0.533232485,	-0.200353883
	-0.395077037,	 0.140565062
	-0.109535578,	 0.250857129
	 0.0818262569,	 0.124903169
	 0.0392532464,	-0.0490260961
	-0.165759055,	-0.0312541321
	-0.254355177,	 0.237153939
	 0.0558846273,	 0.578948809
	 0.311538049,	 0.601336179
END
BEGIN
	-0.0492728479,	 0.0169006935
	-0.0168297022,	 0.0589049304
	 0.0486489358,	 0.0488594964
	 0.0735294329,	-0.0256343008
	 0.00724258354,	-0.0899927713
	-0.0896147916,	-0.046067218
	-0.0765947896,	 0.0610148703
	 0.031927254,	 0.0655860193
	 0.0494995802,	 0.0305003491
END
BEGIN
	-0.0219589489,	-0.0272797582
	-0.0437729535,	 0.0104977851
	-0.00952403752,	 0.0536540792
	 0.0526602388,	 0.034577569
	 0.0573181697,	-0.0396670791
	-0.0180043362,	-0.0678089012
	-0.0601759111,	-0.00566588432
	-0.00716731389,	 0.0385810716
	 0.0135855506,	 0.0264329404
END
BEGIN
	-0.0225687149,	-0.0253011448
	-0.0411263554,	 0.0119577995
	-0.00699655499,	 0.0505681294
	 0.0494583559,	 0.0308563932
	 0.0525709087,	-0.0365751607
	-0.015291919,	-0.0626727243
	-0.0554213687,	-0.0075771505
	-0.0093062264,	 0.0357384753
	 0.0107925369,	 0.0262290833
END
BEGIN
	-0.0492728479,	 0.0169006935
	-0.0168297022,	 0.0589049304
	 0.0486489358,	 0.0488594964
	 0.0735294329,	-0.0256343008
	 0.0072425835,	-0.0899927714
	-0.0896147916,	-0.046067218
	-0.0765947896,	 0.0610148703
	 0.031927254,	 0.0655860193
	 0.0494995802,	 0.0305003491
END
BEGIN
	-0.535812178,	-0.20579406
	-0.403722104,	 0.138689589
	-0.117606571,	 0.258393069
	 0.0836419474,	 0.136659623
	 0.0491337473,	-0.0443297217
	-0.1584548,	-0.0348081877
	-0.25185059,	 0.232479792
	 0.0554791804,	 0.574857549
	 0.309787204,	 0.597900953
END
BEGIN
	-0.0481869174,	 0.0186744186
	-0.0145499755,	 0.0568937107
	 0.0454053543,	 0.0460332408
	 0.0698800333,	-0.0210857917
	 0.0130616326,	-0.0852704962
	-0.0842212585,	-0.0528433704
	-0.0831653052,	 0.0559565607
	 0.030676995,	 0.0710489337
	 0.052111603,	 0.0336545006
END
BEGIN
	 0.0192300846,	-0.0214878597
	-0.0181300257,	-0.0311692348
	-0.0406153783,	 0.0095061384
	-0.00314141417,	 0.0456178614
	 0.0450109974,	 0.0163889549
	 0.0258900783,	-0.0379317094
	-0.0250556488,	-0.029384289
	-0.0188219665,	 0.0175073682
	-0.00169379741,	 0.0198501599
END
BEGIN
	-0.0219589489,	-0.0272797582
	-0.0437729535,	 0.0104977851
	-0.00952403751,	 0.0536540792
	 0.0526602388,	 0.034577569
	 0.0573181698,	-0.0396670791
	-0.0180043362,	-0.0678089012
	-0.0601759111,	-0.00566588432
	-0.00716731389,	 0.0385810716
	 0.0135855506,	 0.0264329404
END
BEGIN
	-0.0481869174,	 0.0186744186
	-0.0145499755,	 0.0568937106
	 0.0454053543,	 0.0460332407
	 0.0698800333,	-0.0210857917
	 0.0130616326,	-0.0852704962
	-0.0842212585,	-0.0528433704
	-0.0831653052,	 0.0559565607
	 0.030676995,	 0.0710489337
	 0.052111603,	 0.0336545006
END
BEGIN
	-0.535007633,	-0.204654138
	-0.401093107,	 0.136876245
	-0.120342318,	 0.253746259
	 0.0770454303,	 0.140081471
	 0.053695798,	-0.0361285164
	-0.149646742,	-0.0415417983
	-0.260053299,	 0.224676761
	 0.0534314081,	 0.583014651
	 0.313620994,	 0.602922249
END
BEGIN
	 50 ,	 0 
	 50 ,	 0 
	 50 ,	 0 
	 50 ,	 0 
	 50 ,	 0 
	 50 ,	 0 
	 50 ,	 0 
	 50 ,	 0 
	 50 ,	 0 
END
BEGIN
	 50 ,	 0 
	 50 ,	 0 
	 50 ,	 0 
	 50 ,	 0 
	 50 ,	 0 
	 50 ,	 0 
	 50 ,	 0 
	 50 ,	 0 
	 50 ,	 0 
END
BEGIN
	 50 ,	 0 
	 50 ,	 0 
	 50 ,	 0 
	 50 ,	 0 
	 50 ,	 0 
	 50 ,	 0 
	 50 ,	 0 
	 50 ,	 0 
	 50 ,	 0 
END
BEGIN
	 50 ,	 0 
	 50 ,	 0 
	 50 ,	 0 
	 50 ,	 0 
	 50 ,	 0 
	 50 ,	 0 
	 50 ,	 0 
	 50 ,	 0 
	 50 ,	 0 
END
BEGIN
	 50 ,	 0 
	 50 ,	 0 
	 50 ,	 0 
	 50 ,	 0 
	 50 ,	 0 
	 50 ,	 0 
	 50 ,	 0 
	 50 ,	 0 
	 50 ,	 0 
END
BEGIN
	 50 ,	 0 
	 50 ,	 0 
	 50 ,	 0 
	 50 ,	 0 
	 50 ,	 0 
	 50 ,	 0 
	 50 ,	 0 
	 50 ,	 0 
	 50 ,	 0 
END
BEGIN
	 50 ,	 0 
	 50 ,	 0 
	 50 ,	 0 
	 50 ,	 0 
	 50 ,	 0 
	 50 ,	 0 
	 50 ,	 0 
	 50 ,	 0 
	 50 ,	 0 
END
BEGIN
	 50 ,	 0 
	 50 ,	 0 
	 50 ,	 0 
	 50 ,	 0 
	 50 ,	 0 
	 50 ,	 0 
	 50 ,	 0 
	 50 ,	 0 
	 50 ,	 0 
END
