CITIFILE A.01.01
#Momentum: B.09.00.071 (*) 370.503 Feb 14 2011 
#Momentum Date and Time: Tue Feb 15 12:42:06 2011

NAME PortSet1/TwoP0_Dsolver_data/first_odd_mode_is_1/most_even_mode_is_1/PMLG4/LS0

CONSTANT NBR_OF_PORTS 4

VAR freq MAG 6

DATA GAMMA_1[1] RI
DATA GAMMA_1[2] RI
DATA GAMMA_1[3] RI
DATA GAMMA_1[4] RI
DATA Z0_1[1,1] RI
DATA Z0_1[1,2] RI
DATA Z0_1[1,3] RI
DATA Z0_1[1,4] RI
DATA Z0_1[2,1] RI
DATA Z0_1[2,2] RI
DATA Z0_1[2,3] RI
DATA Z0_1[2,4] RI
DATA Z0_1[3,1] RI
DATA Z0_1[3,2] RI
DATA Z0_1[3,3] RI
DATA Z0_1[3,4] RI
DATA Z0_1[4,1] RI
DATA Z0_1[4,2] RI
DATA Z0_1[4,3] RI
DATA Z0_1[4,4] RI
DATA LAMBADAI_1[1,1] RI
DATA LAMBADAI_1[1,2] RI
DATA LAMBADAI_1[1,3] RI
DATA LAMBADAI_1[1,4] RI
DATA LAMBADAI_1[2,1] RI
DATA LAMBADAI_1[2,2] RI
DATA LAMBADAI_1[2,3] RI
DATA LAMBADAI_1[2,4] RI
DATA LAMBADAI_1[3,1] RI
DATA LAMBADAI_1[3,2] RI
DATA LAMBADAI_1[3,3] RI
DATA LAMBADAI_1[3,4] RI
DATA LAMBADAI_1[4,1] RI
DATA LAMBADAI_1[4,2] RI
DATA LAMBADAI_1[4,3] RI
DATA LAMBADAI_1[4,4] RI
DATA Zcir_1[1,1] RI
DATA Zcir_1[1,2] RI
DATA Zcir_1[1,3] RI
DATA Zcir_1[1,4] RI
DATA Zcir_1[2,1] RI
DATA Zcir_1[2,2] RI
DATA Zcir_1[2,3] RI
DATA Zcir_1[2,4] RI
DATA Zcir_1[3,1] RI
DATA Zcir_1[3,2] RI
DATA Zcir_1[3,3] RI
DATA Zcir_1[3,4] RI
DATA Zcir_1[4,1] RI
DATA Zcir_1[4,2] RI
DATA Zcir_1[4,3] RI
DATA Zcir_1[4,4] RI
DATA Ycir_1[1,1] RI
DATA Ycir_1[1,2] RI
DATA Ycir_1[1,3] RI
DATA Ycir_1[1,4] RI
DATA Ycir_1[2,1] RI
DATA Ycir_1[2,2] RI
DATA Ycir_1[2,3] RI
DATA Ycir_1[2,4] RI
DATA Ycir_1[3,1] RI
DATA Ycir_1[3,2] RI
DATA Ycir_1[3,3] RI
DATA Ycir_1[3,4] RI
DATA Ycir_1[4,1] RI
DATA Ycir_1[4,2] RI
DATA Ycir_1[4,3] RI
DATA Ycir_1[4,4] RI

VAR_LIST_BEGIN
	 9000000000
	 9090000000
	 9180000000
	 9270000000
	 9773618668
	 1.1e+010
VAR_LIST_END

BEGIN
	 0.4766829831,	 319.0538978
	 0.4800496967,	 322.2573336
	 0.4834173558,	 325.461002
	 0.4867692464,	 328.6649198
	 0.5054260358,	 346.5976222
	 0.5500746919,	 390.2959581
END
BEGIN
	 0.4766829831,	 319.0538978
	 0.4800496967,	 322.2573336
	 0.4834173558,	 325.461002
	 0.4867692464,	 328.6649198
	 0.5054260358,	 346.5976222
	 0.5500746919,	 390.2959581
END
BEGIN
	 0.4766829831,	 319.0538978
	 0.4800496967,	 322.2573336
	 0.4834173558,	 325.461002
	 0.4867692464,	 328.6649198
	 0.5054260358,	 346.5976222
	 0.5500746919,	 390.2959581
END
BEGIN
	 0.4766829831,	 319.0538978
	 0.4800496967,	 322.2573336
	 0.4834173558,	 325.461002
	 0.4867692464,	 328.6649198
	 0.5054260358,	 346.5976222
	 0.5500746919,	 390.2959581
END
BEGIN
	 50.450675020675241 ,	 -0.015628293382607381 
	 50.449716437013208 ,	 -0.015399123098510799 
	 50.448775688340682 ,	 -0.015174484270081114 
	 50.447854873109961 ,	 -0.014951688429705207 
	 50.443039035352413 ,	 -0.013764482774316461 
	 50.433603274918468 ,	 -0.011216394620767414 
END
BEGIN
	 2.614066616e-016,	 1.510834812e-018
	-1.238569186e-014,	-3.460238789e-014
	 1.762761376e-014,	 1.008794842e-016
	-1.209099049e-016,	-6.885675973e-019
	-2.708537465e-014,	-9.312470536e-017
	 4.116214889e-014,	 2.151151274e-016
END
BEGIN
	-1.070738531e-013,	-2.831100963e-014
	-7.572264811e-014,	 1.061449276e-014
	 3.66228872e-014,	 2.09585825e-016
	 2.320544841e-015,	 2.044941671e-013
	 3.637531003e-016,	 2.017475545e-018
	-4.046934796e-013,	-2.47125264e-013
END
BEGIN
	-6.891360009e-015,	 1.130662158e-013
	 8.755203659e-016,	-1.52239005e-013
	 1.120110135e-015,	-1.957272976e-013
	 5.277428305e-015,	 1.066976637e-013
	 1.195139031e-013,	-8.176386756e-014
	 9.813795643e-014,	-8.76004907e-014
END
BEGIN
	-7.919127216e-014,	 2.590910596e-013
	 5.422627918e-015,	-3.557427567e-014
	-3.428467875e-014,	-2.229040841e-013
	-1.644709332e-017,	 2.923779363e-015
	 4.720444401e-014,	-2.227274112e-014
	-7.116430325e-014,	 4.592897105e-015
END
BEGIN
	 50.450675020675085 ,	 -0.015628293382508537 
	 50.449716437013741 ,	 -0.015399123098643382 
	 50.448775688340703 ,	 -0.015174484269971771 
	 50.44785487310989 ,	 -0.014951688429704308 
	 50.443039035352562 ,	 -0.013764482774204178 
	 50.433603274918717 ,	 -0.011216394621035849 
END
BEGIN
	-4.008031964e-013,	-6.195734574e-014
	-6.76308654e-014,	-8.878870757e-014
	-1.106284725e-013,	-6.331057285e-016
	-4.808454403e-013,	-1.949026261e-014
	 1.226639131e-013,	 4.956384498e-014
	 5.887882464e-014,	 2.138901946e-014
END
BEGIN
	-3.862815291e-014,	-1.312364951e-013
	 1.955101641e-014,	 1.623656962e-014
	 2.492730765e-013,	-2.471917385e-013
	 1.416314646e-014,	 9.571205349e-014
	 4.631493789e-014,	 2.0123896e-013
	-1.480493152e-013,	-2.407924278e-013
END
BEGIN
	-3.486984211e-015,	 5.513812234e-014
	 7.683870811e-014,	 2.172975703e-013
	-2.835188889e-016,	 3.814629109e-014
	 4.007648945e-014,	 2.935642947e-015
	-2.828049162e-013,	-1.523747388e-014
	 7.16672136e-014,	-1.332702239e-013
END
BEGIN
	-4.960902597e-014,	 3.609284176e-013
	-3.479894893e-014,	 1.312101139e-013
	 1.575185408e-013,	-8.087825615e-014
	 2.629959961e-014,	 1.494600543e-016
	 3.603841323e-014,	 8.239058769e-014
	-2.754960972e-015,	 9.289862379e-014
END
BEGIN
	 50.450675020674993 ,	 -0.015628293382778973 
	 50.449716437013521 ,	 -0.015399123098556301 
	 50.448775688340724 ,	 -0.01517448426991516 
	 50.44785487310947 ,	 -0.014951688429703123 
	 50.443039035352101 ,	 -0.013764482774310621 
	 50.433603274918489 ,	 -0.011216394620851718 
END
BEGIN
	 1.29514129e-013,	 2.860926094e-013
	 3.749736872e-016,	 5.321850816e-014
	 3.020742871e-013,	 5.615670348e-014
	-3.757929179e-014,	 4.853727182e-014
	-8.754507669e-014,	 7.442451733e-014
	-9.703453093e-014,	 1.892729732e-013
END
BEGIN
	 5.769305599e-014,	-2.205942104e-014
	-1.167549573e-013,	 7.360890522e-014
	-2.814438875e-013,	 5.308605062e-015
	 4.821560655e-015,	 3.063575285e-013
	-3.646512172e-015,	 2.33278716e-014
	-2.709676338e-014,	-4.00565205e-013
END
BEGIN
	-7.64397998e-014,	-1.156988581e-013
	 1.861674032e-014,	-2.468290855e-013
	 3.091165349e-014,	 1.218836043e-013
	 5.14335156e-014,	-1.130799861e-014
	 3.613480149e-015,	 5.943265231e-014
	-2.385314209e-014,	-2.303820619e-014
END
BEGIN
	-6.428129011e-015,	 4.613065807e-014
	 5.095852297e-015,	 2.124678441e-014
	-2.814220909e-014,	-2.493170031e-014
	 8.490752619e-015,	 4.536403737e-014
	 1.356936292e-016,	-2.433814683e-014
	-4.400781039e-015,	-1.320272392e-013
END
BEGIN
	 50.450675020675071 ,	 -0.015628293382510702 
	 50.449716437013628 ,	 -0.015399123098512596 
	 50.448775688340341 ,	 -0.015174484270073965 
	 50.447854873109598 ,	 -0.014951688429706841 
	 50.443039035352498 ,	 -0.013764482774314012 
	 50.433603274918624 ,	 -0.011216394620877328 
END
BEGIN
	 0.4766829831,	 319.0538978
	 0.4800496967,	 322.2573336
	 0.4834173558,	 325.461002
	 0.4867692464,	 328.6649198
	 0.5054260358,	 346.5976222
	 0.5500746919,	 390.2959581
END
BEGIN
	 0,	 0
	 0,	 0
	 0,	 0
	 0,	 0
	 0,	 0
	 0,	 0
END
BEGIN
	 0,	 0
	 0,	 0
	 0,	 0
	 0,	 0
	 0,	 0
	 0,	 0
END
BEGIN
	 0,	 0
	 0,	 0
	 0,	 0
	 0,	 0
	 0,	 0
	 0,	 0
END
BEGIN
	 0,	 0
	 0,	 0
	 0,	 0
	 0,	 0
	 0,	 0
	 0,	 0
END
BEGIN
	 0.4766829831,	 319.0538978
	 0.4800496967,	 322.2573336
	 0.4834173558,	 325.461002
	 0.4867692464,	 328.6649198
	 0.5054260358,	 346.5976222
	 0.5500746919,	 390.2959581
END
BEGIN
	 0,	 0
	 0,	 0
	 0,	 0
	 0,	 0
	 0,	 0
	 0,	 0
END
BEGIN
	 0,	 0
	 0,	 0
	 0,	 0
	 0,	 0
	 0,	 0
	 0,	 0
END
BEGIN
	 0,	 0
	 0,	 0
	 0,	 0
	 0,	 0
	 0,	 0
	 0,	 0
END
BEGIN
	 0,	 0
	 0,	 0
	 0,	 0
	 0,	 0
	 0,	 0
	 0,	 0
END
BEGIN
	 0.4766829831,	 319.0538978
	 0.4800496967,	 322.2573336
	 0.4834173558,	 325.461002
	 0.4867692464,	 328.6649198
	 0.5054260358,	 346.5976222
	 0.5500746919,	 390.2959581
END
BEGIN
	 0,	 0
	 0,	 0
	 0,	 0
	 0,	 0
	 0,	 0
	 0,	 0
END
BEGIN
	 0,	 0
	 0,	 0
	 0,	 0
	 0,	 0
	 0,	 0
	 0,	 0
END
BEGIN
	 0,	 0
	 0,	 0
	 0,	 0
	 0,	 0
	 0,	 0
	 0,	 0
END
BEGIN
	 0,	 0
	 0,	 0
	 0,	 0
	 0,	 0
	 0,	 0
	 0,	 0
END
BEGIN
	 0.4766829831,	 319.0538978
	 0.4800496967,	 322.2573336
	 0.4834173558,	 325.461002
	 0.4867692464,	 328.6649198
	 0.5054260358,	 346.5976222
	 0.5500746919,	 390.2959581
END
BEGIN
	 0.07707169047,	 7.55575434e-010
	 0.07745818768,	 7.55591323e-010
	 0.077844844,	 7.556074247e-010
	 0.07822719486,	 7.556238112e-010
	 0.0803385258,	 7.557197339e-010
	 0.08525981745,	 7.559807449e-010
END
BEGIN
	-9.487677666e-019,	 3.914997146e-027
	 2.958330017e-014,	-1.862740458e-025
	-6.453114947e-017,	 2.640237513e-025
	 4.44489762e-019,	-1.811042592e-027
	 4.93380666e-017,	-4.057856799e-025
	-1.627591346e-016,	 6.170098686e-025
END
BEGIN
	 2.384118322e-014,	-1.604227691e-024
	-9.176188271e-015,	-1.133870686e-024
	-1.340690261e-016,	 5.48532104e-025
	-1.784006161e-013,	 3.929429051e-026
	-1.368092369e-018,	 5.449666279e-027
	 2.554330329e-013,	-6.071425738e-024
END
BEGIN
	-9.576478315e-014,	-1.00678688e-025
	 1.302272407e-013,	 9.716229215e-027
	 1.690921401e-013,	 1.242237757e-026
	-9.307773767e-014,	 8.141395606e-026
	 7.538433333e-014,	 1.788729359e-024
	 9.089816939e-014,	 1.469200865e-024
END
BEGIN
	-2.195250741e-013,	-1.180212705e-024
	 3.043735089e-014,	 8.042168708e-026
	 1.925249973e-013,	-5.184653239e-025
	-2.550767875e-015,	-1.814897537e-028
	 2.0554588e-014,	 7.067139399e-025
	-4.862190632e-015,	-1.066629445e-024
END
BEGIN
	 0.07707169047,	 7.55575434e-010
	 0.07745818768,	 7.55591323e-010
	 0.077844844,	 7.556074247e-010
	 0.07822719486,	 7.556238112e-010
	 0.0803385258,	 7.557197339e-010
	 0.08525981745,	 7.559807449e-010
END
BEGIN
	 5.19646897e-014,	-6.004025335e-024
	 7.586419501e-014,	-1.0148968e-024
	 4.049885933e-016,	-1.656976646e-024
	 1.638228658e-014,	-7.20268952e-024
	-4.543491794e-014,	 1.838790827e-024
	-2.20732408e-014,	 8.830235793e-025
END
BEGIN
	 1.11095642e-013,	-5.814519971e-025
	-1.38639426e-014,	 2.931802482e-025
	 2.138711955e-013,	 3.72804372e-024
	-8.348225419e-014,	 2.142633903e-025
	-1.850807434e-013,	 6.982707283e-025
	 2.492468926e-013,	-2.224291243e-024
END
BEGIN
	-4.670102706e-014,	-5.098915127e-026
	-1.857796861e-013,	 1.155670917e-024
	-3.295531311e-014,	-3.397831378e-027
	-2.509314182e-015,	 6.0034363e-025
	 1.36392914e-014,	-4.237217608e-024
	 1.381737621e-013,	 1.07144944e-024
END
BEGIN
	-3.057339586e-013,	-7.348947797e-025
	-1.122822327e-013,	-5.182607983e-025
	 7.007363314e-014,	 2.357469703e-024
	-9.64096439e-017,	 3.939271496e-025
	-7.575223443e-014,	 5.417149368e-025
	-9.624781024e-014,	-3.933325999e-026
END
BEGIN
	 0.07707169047,	 7.55575434e-010
	 0.07745818768,	 7.55591323e-010
	 0.077844844,	 7.556074247e-010
	 0.07822719486,	 7.556238112e-010
	 0.0803385258,	 7.557197339e-010
	 0.08525981745,	 7.559807449e-010
END
BEGIN
	-2.421286764e-013,	 1.946073083e-024
	-4.552294178e-014,	 6.803365874e-027
	-4.812669922e-014,	 4.525634156e-024
	-4.239316079e-014,	-5.617979461e-025
	-6.85891306e-014,	-1.309943883e-024
	-1.962301403e-013,	-1.450512988e-024
END
BEGIN
	 1.875517928e-014,	 8.635478866e-025
	-6.311425845e-014,	-1.74701123e-024
	-4.947301702e-015,	-4.215270345e-024
	-2.672644272e-013,	 7.901500777e-026
	-2.146688611e-014,	-5.412113088e-026
	 4.149494948e-013,	-4.146327833e-025
END
BEGIN
	 9.788893434e-014,	-1.147391398e-024
	 2.111627494e-013,	 2.733183189e-025
	-1.052567574e-013,	 4.656976973e-025
	 9.931715215e-015,	 7.701368327e-025
	-5.467408912e-014,	 5.543432542e-026
	 2.383295468e-014,	-3.580364473e-025
END
BEGIN
	-3.907630432e-014,	-9.523882752e-026
	-1.816812883e-014,	 7.679524165e-026
	 2.150262484e-014,	-4.220608506e-025
	-3.95652594e-014,	 1.281835544e-025
	 2.239164441e-014,	 1.501199283e-027
	 1.367749501e-013,	-6.875528852e-026
END
BEGIN
	 0.07707169047,	 7.55575434e-010
	 0.07745818768,	 7.55591323e-010
	 0.077844844,	 7.556074247e-010
	 0.07822719486,	 7.556238112e-010
	 0.0803385258,	 7.557197339e-010
	 0.08525981745,	 7.559807449e-010
END
BEGIN
	 2.8215079121103575 ,	 4.2131360420522143e-008 
	 2.8502092228960976 ,	 4.2133846936303578e-008 
	 2.8789165674735973 ,	 4.213631569950535e-008 
	 2.9076293441338095 ,	 4.2138767201060634e-008 
	 3.0683996453794311 ,	 4.2152161062509749e-008 
	 3.4605709553578183 ,	 4.2182493181191242e-008 
END
BEGIN
	 6.055196314e-017,	-2.183018744e-025
	-1.650006408e-012,	 1.03695084e-023
	 4.109444223e-015,	-1.47231849e-023
	-2.827468883e-017,	 1.009957998e-025
	-3.510493114e-015,	 2.263366686e-023
	 1.014008615e-014,	-3.44280614e-023
END
BEGIN
	-1.33253179e-012,	 8.943807803e-023
	 5.094843527e-013,	 6.323314291e-023
	 8.537724635e-015,	-3.058868586e-023
	 9.948907334e-012,	-2.090068046e-024
	 8.649585228e-017,	-3.039678215e-025
	-1.426315121e-011,	 3.386836875e-022
END
BEGIN
	 5.339701765e-012,	 5.672404515e-024
	-7.261801684e-012,	-6.194222087e-025
	-9.429359406e-012,	-7.910763744e-025
	 5.190804437e-012,	-4.487370895e-024
	-4.20140234e-012,	-9.98081335e-023
	-5.069445771e-012,	-8.201159497e-023
END
BEGIN
	 1.223853663e-011,	 6.594343832e-023
	-1.697112043e-012,	-4.502670723e-024
	-1.073711444e-011,	 2.880012276e-023
	 1.422478153e-013,	 1.156875654e-026
	-1.145161476e-012,	-3.942889166e-023
	 2.694724532e-013,	 5.951788705e-023
END
BEGIN
	 2.821507912115031 ,	 4.2131360420522256e-008 
	 2.8502092228897506 ,	 4.2133846936303135e-008 
	 2.8789165674788642 ,	 4.2136315699505323e-008 
	 2.9076293441338557 ,	 4.2138767201060693e-008 
	 3.0683996453851865 ,	 4.2152161062509629e-008 
	 3.4605709553422912 ,	 4.2182493181191023e-008 
END
BEGIN
	-2.909309628e-012,	 3.347561009e-022
	-4.232364418e-012,	 5.654815308e-023
	-2.579030512e-014,	 9.240067763e-023
	-9.274555187e-013,	 4.016616565e-022
	 2.537681238e-012,	-1.025405455e-022
	 1.233164669e-012,	-4.926331404e-023
END
BEGIN
	-6.195891695e-012,	 3.235422228e-023
	 7.736606802e-013,	-1.634025446e-023
	-1.191926327e-011,	-2.08017871e-022
	 4.655950802e-012,	-1.190140466e-023
	 1.032463758e-011,	-3.8856019e-023
	-1.391137567e-011,	 1.240222315e-022
END
BEGIN
	 2.60397606e-012,	 2.871714166e-024
	 1.0361821e-011,	-6.4332583e-023
	 1.837738714e-012,	 2.08646355e-025
	 1.410923051e-013,	-3.347781969e-023
	-7.686856192e-013,	 2.363344412e-022
	-7.708027153e-012,	-5.98347065e-023
END
BEGIN
	 1.704646272e-011,	 4.116492523e-023
	 6.260151116e-012,	 2.896653697e-023
	-3.903078031e-012,	-1.315044993e-022
	 6.13491069e-015,	-2.196800229e-023
	 4.226279262e-012,	-3.017792913e-023
	 5.370399541e-012,	 2.229292507e-024
END
BEGIN
	 2.8215079121022644 ,	 4.2131360420522342e-008 
	 2.8502092228939127 ,	 4.2133846936303307e-008 
	 2.8789165674815891 ,	 4.213631569950531e-008 
	 2.9076293441339285 ,	 4.2138767201061044e-008 
	 3.0683996453797402 ,	 4.2152161062510013e-008 
	 3.4605709553529493 ,	 4.2182493181191228e-008 
END
BEGIN
	 1.350503362e-011,	-1.083662157e-022
	 2.53849468e-012,	-3.522409639e-025
	 2.692531067e-012,	-2.52342934e-022
	 2.363049301e-012,	 3.135373399e-023
	 3.823278247e-012,	 7.309933125e-023
	 1.094682583e-011,	 8.100666705e-023
END
BEGIN
	-1.044112417e-012,	-4.816337611e-023
	 3.516023852e-012,	 9.745565443e-023
	 2.67728666e-013,	 2.350664373e-022
	 1.490463429e-011,	-4.254731941e-024
	 1.197267042e-012,	 3.029379752e-024
	-2.315419981e-011,	 2.298680941e-023
END
BEGIN
	-5.460583801e-012,	 6.391939133e-023
	-1.177447043e-011,	-1.536682233e-023
	 5.870519446e-012,	-2.590830441e-023
	-5.523771933e-013,	-4.29537042e-023
	 3.04968501e-012,	-3.064883909e-024
	-1.330453218e-012,	 1.996927725e-023
END
BEGIN
	 2.178730766e-012,	 5.334443086e-024
	 1.013252951e-012,	-4.271480126e-024
	-1.199905498e-012,	 2.352361801e-023
	 2.206674752e-012,	-7.125932061e-024
	-1.248946067e-012,	-9.483243477e-026
	-7.631931649e-012,	 3.787314738e-024
END
BEGIN
	 2.821507912114928 ,	 4.2131360420522269e-008 
	 2.8502092228959928 ,	 4.2133846936303221e-008 
	 2.8789165674739579 ,	 4.2136315699505634e-008 
	 2.907629344133742 ,	 4.2138767201060945e-008 
	 3.0683996453795519 ,	 4.2152161062509676e-008 
	 3.4605709553514608 ,	 4.2182493181191103e-008 
END
