CITIFILE A.01.01
#Momentum: B.08.60.263 (*) 351.100 Jul  1 2009 
#Momentum Date and Time: Fri Jul 03 16:32:20 2009

NAME Momentum.SP

#  mode: MW    project: \s5i0.5\proj    reference: S_50

CONSTANT NBR_OF_PORTS 2

CONSTANT NORMALIZATION 1

VAR freq MAG 19

DATA S[1,1] RI
DATA S[1,2] RI
DATA S[2,1] RI
DATA S[2,2] RI
DATA S_50[1,1] RI
DATA S_50[1,2] RI
DATA S_50[2,1] RI
DATA S_50[2,2] RI
DATA S_Z0[1,1] RI
DATA S_Z0[1,2] RI
DATA S_Z0[2,1] RI
DATA S_Z0[2,2] RI
DATA GAMMA[1] RI
DATA GAMMA[2] RI
DATA Z0[1] RI
DATA Z0[2] RI
DATA PORTZ[1] RI
DATA PORTZ[2] RI

VAR_LIST_BEGIN
	 1000000000
	 2166666667
	 2814814815
	 4111111111
	 5083333334
	 6055555556
	 8000000000
	 9750000000
	 1.15e+010
	 1.325e+010
	 1.5e+010
	 1.743055556e+010
	 1.767361112e+010
	 1.791666667e+010
	 1.85e+010
	 1.908333333e+010
	 1.932638889e+010
	 1.956944444e+010
	 2.2e+010
VAR_LIST_END

BEGIN
	-0.0721736182,	-0.02360229
	 0.021260759,	-0.0552154402
	-0.0690947918,	-0.117090151
	 0.166883659,	-0.582928361
	-0.889770205,	-0.381629139
	-0.936625193,	 0.337472554
	-0.249070929,	 0.968022257
	 0.410924832,	 0.911407933
	 0.85381059,	 0.520107012
	 0.99949432083231848 ,	 -0.019871319012585709 
	 0.835703278,	-0.548397924
	-0.0309586549,	-0.970129528
	-0.280840138,	-0.144909402
	 0.359116319,	-0.859509955
	-0.051161289,	-0.98349604
	-0.411874807,	-0.859241361
	-0.345020429,	-0.0540965957
	-0.0388329953,	-0.956863691
	-0.911597351,	-0.40985004
END
BEGIN
	 0.310521171,	-0.947458954
	-0.931423587,	-0.358666832
	-0.853152642,	 0.503209922
	 0.763831171,	 0.219043621
	 0.0983301898,	-0.229031787
	-0.0312249449,	-0.0867431584
	-0.0243738759,	-0.00627627852
	-0.0117115526,	 0.00527904397
	-0.00484232997,	 0.00794925581
	 0.000188918399,	 0.00944459766
	 0.00801426992,	 0.0122042214
	 0.235328401,	-0.00835376489
	 0.39940174,	-0.847579501
	-0.330977386,	-0.13966305
	-0.170004377,	 0.00882120206
	-0.269492889,	 0.130121074
	-0.110897934,	 0.917895588
	 0.281453083,	-0.00995888057
	 0.00590388738,	-0.0131149912
END
BEGIN
	 0.310521171,	-0.947458954
	-0.931423587,	-0.358666832
	-0.853152642,	 0.503209922
	 0.763831171,	 0.219043621
	 0.0983301898,	-0.229031787
	-0.0312249449,	-0.0867431584
	-0.0243738759,	-0.00627627852
	-0.0117115526,	 0.00527904397
	-0.00484232997,	 0.00794925581
	 0.000188918399,	 0.00944459766
	 0.00801426992,	 0.0122042214
	 0.235328401,	-0.00835376489
	 0.39940174,	-0.847579501
	-0.330977386,	-0.13966305
	-0.170004377,	 0.00882120206
	-0.269492889,	 0.130121074
	-0.110897934,	 0.917895588
	 0.281453083,	-0.00995888057
	 0.00590388738,	-0.0131149912
END
BEGIN
	-0.072172698,	-0.0236050986
	 0.0212529048,	-0.0552184645
	-0.0690998731,	-0.117087155
	 0.166856227,	-0.582936217
	-0.889782247,	-0.381601071
	-0.936616838,	 0.337495749
	-0.249054871,	 0.96802639
	 0.410933569,	 0.911403995
	 0.853811689,	 0.520105213
	 0.99949445923146152 ,	 -0.019864557775840747 
	 0.835712743,	-0.548383509
	-0.030910959,	-0.970131126
	-0.280799598,	-0.144994717
	 0.359106975,	-0.859513981
	-0.0511626151,	-0.983495939
	-0.41195466,	-0.859202544
	-0.345078484,	-0.053607733
	-0.0385958631,	-0.956872476
	-0.91155607,	-0.409941835
END
BEGIN
	-0.0721736182,	-0.02360229
	 0.021260759,	-0.0552154402
	-0.0690947918,	-0.117090151
	 0.166883659,	-0.582928361
	-0.889770205,	-0.381629139
	-0.936625193,	 0.337472554
	-0.249070929,	 0.968022257
	 0.410924832,	 0.911407933
	 0.85381059,	 0.520107012
	 0.99949432083231848 ,	 -0.019871319012585709 
	 0.835703278,	-0.548397924
	-0.0309586549,	-0.970129528
	-0.280840138,	-0.144909402
	 0.359116319,	-0.859509955
	-0.051161289,	-0.98349604
	-0.411874807,	-0.859241361
	-0.345020429,	-0.0540965957
	-0.0388329953,	-0.956863691
	-0.911597351,	-0.40985004
END
BEGIN
	 0.310521171,	-0.947458954
	-0.931423587,	-0.358666832
	-0.853152642,	 0.503209922
	 0.763831171,	 0.219043621
	 0.0983301898,	-0.229031787
	-0.0312249449,	-0.0867431584
	-0.0243738759,	-0.00627627852
	-0.0117115526,	 0.00527904397
	-0.00484232997,	 0.00794925581
	 0.000188918399,	 0.00944459766
	 0.00801426992,	 0.0122042214
	 0.235328401,	-0.00835376489
	 0.39940174,	-0.847579501
	-0.330977386,	-0.13966305
	-0.170004377,	 0.00882120206
	-0.269492889,	 0.130121074
	-0.110897934,	 0.917895588
	 0.281453083,	-0.00995888057
	 0.00590388738,	-0.0131149912
END
BEGIN
	 0.310521171,	-0.947458954
	-0.931423587,	-0.358666832
	-0.853152642,	 0.503209922
	 0.763831171,	 0.219043621
	 0.0983301898,	-0.229031787
	-0.0312249449,	-0.0867431584
	-0.0243738759,	-0.00627627852
	-0.0117115526,	 0.00527904397
	-0.00484232997,	 0.00794925581
	 0.000188918399,	 0.00944459766
	 0.00801426992,	 0.0122042214
	 0.235328401,	-0.00835376489
	 0.39940174,	-0.847579501
	-0.330977386,	-0.13966305
	-0.170004377,	 0.00882120206
	-0.269492889,	 0.130121074
	-0.110897934,	 0.917895588
	 0.281453083,	-0.00995888057
	 0.00590388738,	-0.0131149912
END
BEGIN
	-0.072172698,	-0.0236050986
	 0.0212529048,	-0.0552184645
	-0.0690998731,	-0.117087155
	 0.166856227,	-0.582936217
	-0.889782247,	-0.381601071
	-0.936616838,	 0.337495749
	-0.249054871,	 0.96802639
	 0.410933569,	 0.911403995
	 0.853811689,	 0.520105213
	 0.99949445923146152 ,	 -0.019864557775840747 
	 0.835712743,	-0.548383509
	-0.030910959,	-0.970131126
	-0.280799598,	-0.144994717
	 0.359106975,	-0.859513981
	-0.0511626151,	-0.983495939
	-0.41195466,	-0.859202544
	-0.345078484,	-0.053607733
	-0.0385958631,	-0.956872476
	-0.91155607,	-0.409941835
END
BEGIN
	-0.108936134,	-0.0354969259
	 0.0158825175,	-0.0415168476
	-0.0801915567,	-0.134283595
	 0.151129854,	-0.580053596
	-0.897683264,	-0.368657923
	-0.941400461,	 0.324905702
	-0.287073028,	 0.957449346
	 0.376282189,	 0.926242349
	 0.842302506,	 0.53852537
	 0.99946256950992896 ,	 -0.020703503834723105 
	 0.82290204,	-0.567393198
	-0.0696454759,	-0.968247374
	-0.311450586,	-0.15671041
	 0.327565972,	-0.86985069
	-0.0908633514,	-0.980711166
	-0.442569957,	-0.845700991
	-0.379729273,	-0.0573212029
	-0.0764998682,	-0.954770617
	-0.918307721,	-0.394642148
END
BEGIN
	 0.308170688,	-0.944336246
	-0.932864467,	-0.357042952
	-0.84792112,	 0.506102535
	 0.773906585,	 0.202037118
	 0.0913574109,	-0.222227402
	-0.0289146386,	-0.0838594721
	-0.0238422374,	-0.00715342067
	-0.0120955095,	 0.00491251382
	-0.00519132034,	 0.00811983733
	 0.000205023439,	 0.00983999953
	 0.00857913443,	 0.0124339836
	 0.234335952,	-0.0176874995
	 0.389325285,	-0.839796196
	-0.340513653,	-0.129634393
	-0.169024286,	 0.0156337526
	-0.260168014,	 0.137073292
	-0.107135223,	 0.90458849
	 0.280194654,	-0.0209652906
	 0.00547537305,	-0.0127241198
END
BEGIN
	 0.308170688,	-0.944336246
	-0.932864467,	-0.357042952
	-0.84792112,	 0.506102535
	 0.773906585,	 0.202037118
	 0.0913574109,	-0.222227402
	-0.0289146386,	-0.0838594721
	-0.0238422374,	-0.00715342067
	-0.0120955095,	 0.00491251382
	-0.00519132034,	 0.00811983733
	 0.000205023439,	 0.00983999953
	 0.00857913443,	 0.0124339836
	 0.234335952,	-0.0176874995
	 0.389325285,	-0.839796196
	-0.340513653,	-0.129634393
	-0.169024286,	 0.0156337526
	-0.260168014,	 0.137073292
	-0.107135223,	 0.90458849
	 0.280194654,	-0.0209652906
	 0.00547537305,	-0.0127241198
END
BEGIN
	-0.108935221,	-0.0354997252
	 0.0158746512,	-0.0415198583
	-0.0801966068,	-0.134280582
	 0.15110206,	-0.580060841
	-0.897694452,	-0.368630689
	-0.941392724,	 0.324928126
	-0.28705732,	 0.957454057
	 0.376291212,	 0.926238684
	 0.842303684,	 0.538523532
	 0.9994627195705732 ,	 -0.020696459538828951 
	 0.822912172,	-0.567378512
	-0.0695979773,	-0.968250864
	-0.311411064,	-0.156794944
	 0.327556356,	-0.869854434
	-0.0908646685,	-0.980711012
	-0.442647038,	-0.845660118
	-0.379785339,	-0.0568394297
	-0.0762638118,	-0.954788674
	-0.918269438,	-0.394731207
END
BEGIN
	 0.00155432027,	 31.0864054
	 0.00336769411,	 67.3538784
	 0.00437512397,	 87.5024745
	 0.00638998361,	 127.799667
	 0.00790112829,	 158.022561
	 0.00941227292,	 188.245455
	 0.0124345621,	 248.691243
	 0.0151546224,	 303.092453
	 0.0178746828,	 357.493662
	 0.0205947433,	 411.894872
	 0.023314804,	 466.296081
	 0.0270925999,	 541.853317
	 0.0274703816,	 549.40904
	 0.0278481638,	 556.964764
	 0.028754844,	 575.0985
	 0.0296615287,	 593.232237
	 0.0300393155,	 600.78796
	 0.0304171033,	 608.343684
	 0.0341950459,	 683.900919
END
BEGIN
	 0.00155432027,	 31.0864054
	 0.00336769411,	 67.3538784
	 0.00437512397,	 87.5024745
	 0.00638998361,	 127.799667
	 0.00790112829,	 158.022561
	 0.00941227292,	 188.245455
	 0.0124345621,	 248.691243
	 0.0151546224,	 303.092453
	 0.0178746828,	 357.493662
	 0.0205947433,	 411.894872
	 0.023314804,	 466.296081
	 0.0270925999,	 541.853317
	 0.0274703816,	 549.40904
	 0.0278481638,	 556.964764
	 0.028754844,	 575.0985
	 0.0296615287,	 593.232237
	 0.0300393155,	 600.78796
	 0.0304171033,	 608.343684
	 0.0341950459,	 683.900919
END
BEGIN
	 52.095217839999997 ,	 0.0026047608860000002 
	 52.095216749999999 ,	 0.0026047609830000002 
	 52.095216229999998 ,	 0.0026047609589999999 
	 52.095215369999998 ,	 0.0026047608830000002 
	 52.095214900000002 ,	 0.002604760827 
	 52.095214570000003 ,	 0.0026047607770000002 
	 52.095214339999998 ,	 0.002604760711 
	 52.095214609999999 ,	 0.0026047606930000001 
	 52.095215349999997 ,	 0.002604760719 
	 52.095216540000003 ,	 0.0026047607890000001 
	 52.095218199999998 ,	 0.0026047609030000001 
	 52.095702680000002 ,	 0.0026047787950000002 
	 52.09576483 ,	 0.0026047815629999999 
	 52.095829459999997 ,	 0.0026047845199999998 
	 52.095994750000003 ,	 0.002604792404 
	 52.096174380000001 ,	 0.0026048014229999999 
	 52.096253470000001 ,	 0.002604805523 
	 52.09633504 ,	 0.0026048098260000002 
	 52.097287739999999 ,	 0.0026048643819999999 
END
BEGIN
	 52.095217839999997 ,	 0.0026047608860000002 
	 52.095216749999999 ,	 0.0026047609830000002 
	 52.095216229999998 ,	 0.0026047609589999999 
	 52.095215369999998 ,	 0.0026047608830000002 
	 52.095214900000002 ,	 0.002604760827 
	 52.095214570000003 ,	 0.0026047607770000002 
	 52.095214339999998 ,	 0.002604760711 
	 52.095214609999999 ,	 0.0026047606930000001 
	 52.095215349999997 ,	 0.002604760719 
	 52.095216540000003 ,	 0.0026047607890000001 
	 52.095218199999998 ,	 0.0026047609030000001 
	 52.095702680000002 ,	 0.0026047787950000002 
	 52.09576483 ,	 0.0026047815629999999 
	 52.095829459999997 ,	 0.0026047845199999998 
	 52.095994750000003 ,	 0.002604792404 
	 52.096174380000001 ,	 0.0026048014229999999 
	 52.096253470000001 ,	 0.002604805523 
	 52.09633504 ,	 0.0026048098260000002 
	 52.097287739999999 ,	 0.0026048643819999999 
END
BEGIN
	 50 ,	 0 
	 50 ,	 0 
	 50 ,	 0 
	 50 ,	 0 
	 50 ,	 0 
	 50 ,	 0 
	 50 ,	 0 
	 50 ,	 0 
	 50 ,	 0 
	 50 ,	 0 
	 50 ,	 0 
	 50 ,	 0 
	 50 ,	 0 
	 50 ,	 0 
	 50 ,	 0 
	 50 ,	 0 
	 50 ,	 0 
	 50 ,	 0 
	 50 ,	 0 
END
BEGIN
	 50 ,	 0 
	 50 ,	 0 
	 50 ,	 0 
	 50 ,	 0 
	 50 ,	 0 
	 50 ,	 0 
	 50 ,	 0 
	 50 ,	 0 
	 50 ,	 0 
	 50 ,	 0 
	 50 ,	 0 
	 50 ,	 0 
	 50 ,	 0 
	 50 ,	 0 
	 50 ,	 0 
	 50 ,	 0 
	 50 ,	 0 
	 50 ,	 0 
	 50 ,	 0 
END
