CITIFILE A.01.01
#Momentum: B.09.00.151 (*) 371.100 Apr 11 2011 
#Momentum Date and Time: Tue Apr 19 16:58:33 2011

NAME Momentum.SP

#  mode: MW    project: proj

CONSTANT NBR_OF_PORTS 4

CONSTANT NORMALIZATION 1

VAR freq MAG 50

DATA S[1,1] RI
DATA S[1,2] RI
DATA S[1,3] RI
DATA S[1,4] RI
DATA S[2,1] RI
DATA S[2,2] RI
DATA S[2,3] RI
DATA S[2,4] RI
DATA S[3,1] RI
DATA S[3,2] RI
DATA S[3,3] RI
DATA S[3,4] RI
DATA S[4,1] RI
DATA S[4,2] RI
DATA S[4,3] RI
DATA S[4,4] RI
DATA S_50[1,1] RI
DATA S_50[1,2] RI
DATA S_50[1,3] RI
DATA S_50[1,4] RI
DATA S_50[2,1] RI
DATA S_50[2,2] RI
DATA S_50[2,3] RI
DATA S_50[2,4] RI
DATA S_50[3,1] RI
DATA S_50[3,2] RI
DATA S_50[3,3] RI
DATA S_50[3,4] RI
DATA S_50[4,1] RI
DATA S_50[4,2] RI
DATA S_50[4,3] RI
DATA S_50[4,4] RI
DATA S_Z0[1,1] RI
DATA S_Z0[1,2] RI
DATA S_Z0[1,3] RI
DATA S_Z0[1,4] RI
DATA S_Z0[2,1] RI
DATA S_Z0[2,2] RI
DATA S_Z0[2,3] RI
DATA S_Z0[2,4] RI
DATA S_Z0[3,1] RI
DATA S_Z0[3,2] RI
DATA S_Z0[3,3] RI
DATA S_Z0[3,4] RI
DATA S_Z0[4,1] RI
DATA S_Z0[4,2] RI
DATA S_Z0[4,3] RI
DATA S_Z0[4,4] RI
DATA Z0[1] RI
DATA Z0[2] RI
DATA Z0[3] RI
DATA Z0[4] RI
DATA PORTZ[1] RI
DATA PORTZ[2] RI
DATA PORTZ[3] RI
DATA PORTZ[4] RI

VAR_LIST_BEGIN
	 200000000
	 400000000
	 600000000
	 800000000
	 1000000000
	 1200000000
	 1400000000
	 1600000000
	 1800000000
	 2000000000
	 2200000000
	 2400000000
	 2600000000
	 2800000000
	 3000000000
	 3200000000
	 3400000000
	 3600000000
	 3800000000
	 4000000000
	 4200000000
	 4400000000
	 4600000000
	 4800000000
	 5000000000
	 5200000000
	 5400000000
	 5600000000
	 5800000000
	 6000000000
	 6200000000
	 6400000000
	 6600000000
	 6800000000
	 7000000000
	 7200000000
	 7400000000
	 7600000000
	 7800000000
	 8000000000
	 8200000000
	 8400000000
	 8600000000
	 8800000000
	 9000000000
	 9200000000
	 9400000000
	 9600000000
	 9800000000
	 1e+010
VAR_LIST_END

BEGIN
	 0.105253447,	 0.0486613076
	 0.0854552639,	-0.0276693541
	 0.0733648198,	-0.00186063544
	 0.0643840822,	-0.0200853037
	 0.053738965,	 0.021081103
	 0.115407967,	 0.00867501226
	 0.0817562044,	-0.0589456188
	 0.0247647131,	-0.0153401125
	 0.0665655948,	 0.0209462995
	 0.0855317935,	-0.00867407679
	 0.078254927,	-0.02535303
	 0.0517887874,	-0.0393240103
	 0.0295978121,	-0.00706895126
	 0.0594971235,	 0.00789583721
	 0.0600614712,	-0.0150462137
	 0.0426982377,	-0.00787466922
	 0.0500110041,	 0.00854032175
	 0.0703496106,	 0.00521400752
	 0.0739168854,	-0.0247111237
	 0.0383674381,	-0.0370218514
	 0.0192323151,	-0.00847435243
	 0.0358508695,	 0.0059907825
	 0.0357080015,	-0.0113835585
	-0.00394011748,	-0.00181899067
	-0.00367876215,	 0.0682992765
	 0.0804184848,	 0.091430906
	 0.124448603,	 0.0196921778
	 0.075143134,	-0.0368625435
	 0.0103911587,	 0.000825471789
	 0.0438730466,	 0.0755682581
	 0.129444807,	 0.0499287967
	 0.117474675,	-0.0324423639
	 0.0529879861,	-0.0338230579
	 0.0512165247,	 0.0146616251
	 0.097268917,	 0.00844603998
	 0.0914000728,	-0.0534737609
	 0.00847915835,	-0.056595369
	-0.00376518629,	 0.030648617
	 0.069104164,	 0.046072815
	 0.0846596435,	-0.0130700303
	 0.0178183393,	-0.034534577
	-0.0187144177,	 0.0594705771
	 0.0987919201,	 0.114684392
	 0.164103529,	-0.0028774927
	 0.0657816466,	-0.0595988613
	 0.0353842475,	 0.0163554964
	 0.0913645029,	 0.0226394185
	 0.103398605,	-0.00853719222
	 0.0984891181,	-0.06510075
	-0.0047806178,	-0.0598262307
END
BEGIN
	 0.438348197,	-0.840126569
	-0.45733539,	-0.700531906
	-0.700222234,	 0.0203838621
	-0.317180044,	 0.502646639
	 0.210397807,	 0.47874158
	 0.471558882,	 0.0982396178
	 0.36443511,	-0.325310158
	-0.0674832718,	-0.525238545
	-0.517221622,	-0.253475567
	-0.544613978,	 0.319070188
	-0.0212954575,	 0.688537849
	 0.610226121,	 0.397843806
	 0.678888627,	-0.32427631
	 0.0749545664,	-0.758288514
	-0.602965945,	-0.455232888
	-0.693834542,	 0.266117327
	-0.138449333,	 0.716752072
	 0.519623741,	 0.484953746
	 0.675791339,	-0.167874892
	 0.22802895,	-0.659261924
	-0.43793376,	-0.550519394
	-0.706210762,	 0.0742388855
	-0.320871958,	 0.64639066
	 0.384264089,	 0.622633841
	 0.734168758,	 3.34730958e-005
	 0.381976684,	-0.61811688
	-0.311515533,	-0.63865759
	-0.69310749,	-0.0849113609
	-0.439557574,	 0.535801254
	 0.216307371,	 0.640520526
	 0.636822172,	 0.170539806
	 0.506226351,	-0.43962683
	-0.105732829,	-0.684293072
	-0.645792305,	-0.274882725
	-0.589845664,	 0.401249567
	 0.0250729085,	 0.732275913
	 0.648937037,	 0.364935948
	 0.640168059,	-0.366617219
	 0.0156522348,	-0.709226199
	-0.556902353,	-0.36388639
	-0.561621392,	 0.253262618
	-0.082121164,	 0.55395087
	 0.368121716,	 0.342156128
	 0.466984072,	-0.0882302137
	 0.202083838,	-0.441337748
	-0.26817772,	-0.443939126
	-0.583991767,	-0.0409303903
	-0.432155155,	 0.552236325
	 0.294247819,	 0.783721445
	 0.943297765,	 0.141076535
END
BEGIN
	 0.262416066,	 0.134223998
	 0.45177012,	-0.28864675
	-0.0206642963,	-0.705593694
	-0.679127867,	-0.419099444
	-0.778364756,	 0.334415653
	-0.185141383,	 0.845474593
	 0.579470604,	 0.641203147
	 0.839144831,	-0.109268036
	 0.359757919,	-0.728323533
	-0.395253936,	-0.656428339
	-0.714254356,	-0.0158956451
	-0.373479155,	 0.566253153
	 0.283295294,	 0.591842865
	 0.638571946,	 0.0634653324
	 0.394431392,	-0.514318064
	-0.239138437,	-0.620268159
	-0.666324241,	-0.128456058
	-0.479125623,	 0.503317379
	 0.169392145,	 0.687379058
	 0.673174339,	 0.229219149
	 0.554673411,	-0.441000427
	-0.074394516,	-0.696638742
	-0.617655332,	-0.30418197
	-0.578459518,	 0.357150112
	-0.000647405779,	 0.670683169
	 0.559397872,	 0.358728739
	 0.619020181,	-0.279045539
	 0.0944600797,	-0.697709394
	-0.555876343,	-0.455564297
	-0.688081295,	 0.227652451
	-0.181436661,	 0.702692949
	 0.485441755,	 0.531768163
	 0.704454628,	-0.113323615
	 0.277306776,	-0.649209055
	-0.395740369,	-0.558311118
	-0.660939616,	 0.0354905539
	-0.320874097,	 0.576950392
	 0.332315327,	 0.582631174
	 0.691705666,	 0.0238909343
	 0.410291421,	-0.608663302
	-0.320383056,	-0.71467345
	-0.813934723,	-0.117904682
	-0.565045855,	 0.626270647
	 0.183449495,	 0.835717354
	 0.791388663,	 0.34632148
	 0.729291785,	-0.437728292
	 0.0498311532,	-0.797595048
	-0.556005509,	-0.415646444
	-0.486893149,	 0.190723298
	-0.0394253231,	 0.278596249
END
BEGIN
	-0.0323380522,	 0.023771951
	 0.0606808233,	 0.0268941231
	-0.00241013997,	-0.072727919
	-0.0634894437,	 0.0301920111
	 0.0494838637,	 0.0509283185
	 0.0415975481,	-0.0564236356
	-0.0522659186,	-0.0294104006
	-0.00227728851,	 0.0427292613
	 0.0346992315,	-0.0372135198
	-0.0708064225,	-0.0324982194
	-0.0287721809,	 0.0795917456
	 0.0600496199,	 0.0120465047
	-0.0195968246,	-0.0277127717
	-0.00204539104,	 0.0503558092
	 0.0599756298,	-0.0114540462
	-0.0246498843,	-0.0416057167
	-0.00998522112,	 0.0470506631
	 0.0708480178,	-0.0108504242
	-0.0120539132,	-0.0762854638
	-0.0524993963,	 0.00806704425
	 0.0166957727,	 0.012792495
	-0.013491507,	-0.0345943659
	-0.0367797079,	 0.0106307458
	-0.0058052506,	 0.000830314033
	-0.062722924,	 0.00552553093
	-0.0240143342,	 0.111378724
	 0.109623775,	 0.0585581764
	 0.0544621271,	-0.0622048598
	-0.00968401448,	 0.00470749545
	 0.0835527872,	-0.00687992132
	 0.0165503354,	-0.126905704
	-0.111806988,	-0.0387914211
	-0.0161734326,	 0.0626317788
	 0.0266969578,	-0.0450384087
	-0.093593395,	-0.030714024
	-0.0524426559,	 0.0862440922
	 0.0286667859,	 0.0444348239
	-0.00906622664,	 0.0307021777
	 0.0443290528,	 0.0700333014
	 0.0842058424,	-0.0130920271
	 0.0167604138,	-0.0333230393
	 0.0437583911,	-0.00582489806
	 0.0394798156,	-0.0856931033
	-0.0717512722,	-0.0764464226
	-0.0669294088,	 0.0388085557
	 0.0349391628,	 0.0193080427
	-0.0193247722,	-0.0696873796
	-0.102498004,	 0.0179246578
	-0.0130430899,	 0.081117061
	 0.00902673862,	 0.0450685133
END
BEGIN
	 0.438348197,	-0.840126569
	-0.45733539,	-0.700531906
	-0.700222234,	 0.0203838621
	-0.317180044,	 0.502646639
	 0.210397807,	 0.47874158
	 0.471558882,	 0.0982396178
	 0.36443511,	-0.325310158
	-0.0674832718,	-0.525238545
	-0.517221622,	-0.253475567
	-0.544613978,	 0.319070188
	-0.0212954575,	 0.688537849
	 0.610226121,	 0.397843806
	 0.678888627,	-0.32427631
	 0.0749545664,	-0.758288514
	-0.602965945,	-0.455232888
	-0.693834542,	 0.266117327
	-0.138449333,	 0.716752072
	 0.519623741,	 0.484953746
	 0.675791339,	-0.167874892
	 0.22802895,	-0.659261924
	-0.43793376,	-0.550519394
	-0.706210762,	 0.0742388855
	-0.320871958,	 0.64639066
	 0.384264089,	 0.622633841
	 0.734168758,	 3.34730958e-005
	 0.381976684,	-0.61811688
	-0.311515533,	-0.63865759
	-0.69310749,	-0.0849113609
	-0.439557574,	 0.535801254
	 0.216307371,	 0.640520526
	 0.636822172,	 0.170539806
	 0.506226351,	-0.43962683
	-0.105732829,	-0.684293072
	-0.645792305,	-0.274882725
	-0.589845664,	 0.401249567
	 0.0250729085,	 0.732275913
	 0.648937037,	 0.364935948
	 0.640168059,	-0.366617219
	 0.0156522348,	-0.709226199
	-0.556902353,	-0.36388639
	-0.561621392,	 0.253262618
	-0.082121164,	 0.55395087
	 0.368121716,	 0.342156128
	 0.466984072,	-0.0882302137
	 0.202083838,	-0.441337748
	-0.26817772,	-0.443939126
	-0.583991767,	-0.0409303903
	-0.432155155,	 0.552236325
	 0.294247819,	 0.783721445
	 0.943297765,	 0.141076535
END
BEGIN
	 0.10525593,	 0.0486617135
	 0.0854506546,	-0.0276829566
	 0.0733035692,	-0.00183393894
	 0.0643911205,	-0.0199492343
	 0.0539046927,	 0.0211732702
	 0.115605234,	 0.00861292615
	 0.0819005127,	-0.0591150264
	 0.024801141,	-0.0156074743
	 0.0664188751,	 0.0206981385
	 0.0853212356,	-0.00878327098
	 0.0780629641,	-0.0254644303
	 0.0513733418,	-0.0394054652
	 0.0290932713,	-0.00670866305
	 0.0594368039,	 0.00856249509
	 0.0603864012,	-0.0146527431
	 0.0429504199,	-0.00769084021
	 0.0503447292,	 0.00881047036
	 0.0709856942,	 0.00523471092
	 0.074360469,	-0.0251692222
	 0.0383685799,	-0.0374228696
	 0.0193661296,	-0.00858070919
	 0.036325181,	 0.00549004765
	 0.0355853087,	-0.0125965571
	-0.00525312148,	-0.00261654898
	-0.00505399435,	 0.0688536147
	 0.0800968309,	 0.0923962228
	 0.124396089,	 0.0200315658
	 0.0745373043,	-0.036286987
	 0.0103123069,	 0.00241705813
	 0.0453707897,	 0.0769531167
	 0.131486466,	 0.0497322499
	 0.118655046,	-0.0338291434
	 0.0529784457,	-0.0352077703
	 0.0508681346,	 0.0138841022
	 0.0970491274,	 0.00763559275
	 0.0905126564,	-0.0545241779
	 0.00668240423,	-0.0566998138
	-0.00490094627,	 0.0319741683
	 0.0693352959,	 0.0472752945
	 0.0849635038,	-0.0125685734
	 0.0180658912,	-0.0338062466
	-0.0176176189,	 0.0600357796
	 0.0998974674,	 0.113977128
	 0.16394729,	-0.00405673999
	 0.0647773796,	-0.0597595594
	 0.0351809451,	 0.0172164583
	 0.092156218,	 0.0227874887
	 0.103195335,	-0.0093049383
	 0.0975090797,	-0.0641912004
	-0.00295246578,	-0.0584952709
END
BEGIN
	-0.0323372428,	 0.0237637337
	 0.0606719568,	 0.0268931885
	-0.00238598183,	-0.0727488648
	-0.0635382211,	 0.030093133
	 0.049288124,	 0.0509354854
	 0.041488049,	-0.0561860014
	-0.0520913348,	-0.0291916861
	-0.00205200317,	 0.0426556847
	 0.0346435771,	-0.0373548848
	-0.0709022234,	-0.03233608
	-0.0284892789,	 0.0797862734
	 0.0604295458,	 0.0117796881
	-0.0196906742,	-0.0281949904
	-0.0024261895,	 0.0503111908
	 0.0599740927,	-0.0112270931
	-0.0244133149,	-0.0418023318
	-0.0102897756,	 0.0465774257
	 0.0701164348,	-0.0107034495
	-0.0122163836,	-0.0755544216
	-0.0520286647,	 0.00836276534
	 0.0167620729,	 0.0125241885
	-0.0139155518,	-0.0342973893
	-0.036411531,	 0.0115696262
	-0.004441534,	 0.000871239239
	-0.0621144348,	 0.00424617102
	-0.0247819756,	 0.110581781
	 0.109216452,	 0.0589684726
	 0.055131214,	-0.0623644578
	-0.00995247024,	 0.00330732989
	 0.0816242868,	-0.00719617281
	 0.0154375192,	-0.12518937
	-0.110856724,	-0.037374542
	-0.0151641439,	 0.0622733811
	 0.0262369795,	-0.0454237581
	-0.0938862287,	-0.0296975673
	-0.0511502135,	 0.0871154924
	 0.0301695195,	 0.0435614472
	-0.00917664279,	 0.0292072674
	 0.0434585456,	 0.069735811
	 0.0843123437,	-0.0128495231
	 0.0170869967,	-0.0340586024
	 0.0429845679,	-0.00674172541
	 0.038329096,	-0.0855520758
	-0.0722996938,	-0.075856214
	-0.0672479145,	 0.0392720063
	 0.0346109888,	 0.0199473338
	-0.0193022458,	-0.0689409995
	-0.102644986,	 0.018616018
	-0.0126898288,	 0.0831135602
	 0.0124647089,	 0.0461648347
END
BEGIN
	 0.262415715,	 0.13422424
	 0.451771705,	-0.288646277
	-0.0206650698,	-0.705598032
	-0.679132816,	-0.419096584
	-0.778360468,	 0.334420989
	-0.185137307,	 0.845470384
	 0.579463837,	 0.641199457
	 0.839144711,	-0.109255995
	 0.359773738,	-0.728331595
	-0.395269996,	-0.656442243
	-0.714261357,	-0.015879021
	-0.373470803,	 0.566255957
	 0.283300915,	 0.591843438
	 0.638572539,	 0.0634515307
	 0.394414816,	-0.514309343
	-0.239119106,	-0.620256721
	-0.666320049,	-0.128478152
	-0.479144132,	 0.503315974
	 0.169389788,	 0.687393103
	 0.673184875,	 0.229219678
	 0.554666717,	-0.441006173
	-0.074392201,	-0.696624874
	-0.61763963,	-0.304190014
	-0.57846611,	 0.35713641
	-0.000661985476,	 0.670683218
	 0.55939622,	 0.358750063
	 0.619049671,	-0.279052378
	 0.0944382979,	-0.697740646
	-0.555902574,	-0.455535407
	-0.688051351,	 0.227677346
	-0.181411655,	 0.702668137
	 0.485414342,	 0.531745679
	 0.704447539,	-0.113288137
	 0.277345906,	-0.649228577
	-0.395777755,	-0.558339954
	-0.660960277,	 0.0355289988
	-0.320845914,	 0.576968598
	 0.332336654,	 0.582613947
	 0.691687215,	 0.0238739327
	 0.41027614,	-0.608632368
	-0.320345535,	-0.714676723
	-0.81394754,	-0.117937323
	-0.565074756,	 0.626289429
	 0.183466122,	 0.835745933
	 0.791417659,	 0.346302363
	 0.729264911,	-0.437753772
	 0.0498194684,	-0.797565962
	-0.555983711,	-0.415642756
	-0.486890181,	 0.190708065
	-0.0394385344,	 0.278593745
END
BEGIN
	 0.262416066,	 0.134223998
	 0.45177012,	-0.28864675
	-0.0206642963,	-0.705593694
	-0.679127867,	-0.419099444
	-0.778364756,	 0.334415653
	-0.185141383,	 0.845474593
	 0.579470604,	 0.641203147
	 0.839144831,	-0.109268036
	 0.359757919,	-0.728323533
	-0.395253936,	-0.656428339
	-0.714254356,	-0.0158956451
	-0.373479155,	 0.566253153
	 0.283295294,	 0.591842865
	 0.638571946,	 0.0634653324
	 0.394431392,	-0.514318064
	-0.239138437,	-0.620268159
	-0.666324241,	-0.128456058
	-0.479125623,	 0.503317379
	 0.169392145,	 0.687379058
	 0.673174339,	 0.229219149
	 0.554673411,	-0.441000427
	-0.074394516,	-0.696638742
	-0.617655332,	-0.30418197
	-0.578459518,	 0.357150112
	-0.000647405779,	 0.670683169
	 0.559397872,	 0.358728739
	 0.619020181,	-0.279045539
	 0.0944600797,	-0.697709394
	-0.555876343,	-0.455564297
	-0.688081295,	 0.227652451
	-0.181436661,	 0.702692949
	 0.485441755,	 0.531768163
	 0.704454628,	-0.113323615
	 0.277306776,	-0.649209055
	-0.395740369,	-0.558311118
	-0.660939616,	 0.0354905539
	-0.320874097,	 0.576950392
	 0.332315327,	 0.582631174
	 0.691705666,	 0.0238909343
	 0.410291421,	-0.608663302
	-0.320383056,	-0.71467345
	-0.813934723,	-0.117904682
	-0.565045855,	 0.626270647
	 0.183449495,	 0.835717354
	 0.791388663,	 0.34632148
	 0.729291785,	-0.437728292
	 0.0498311532,	-0.797595048
	-0.556005509,	-0.415646444
	-0.486893149,	 0.190723298
	-0.0394253231,	 0.278596249
END
BEGIN
	-0.0323372428,	 0.0237637337
	 0.0606719568,	 0.0268931885
	-0.00238598183,	-0.0727488648
	-0.0635382211,	 0.030093133
	 0.049288124,	 0.0509354854
	 0.041488049,	-0.0561860014
	-0.0520913348,	-0.0291916861
	-0.00205200317,	 0.0426556847
	 0.0346435771,	-0.0373548848
	-0.0709022234,	-0.03233608
	-0.0284892789,	 0.0797862734
	 0.0604295458,	 0.0117796881
	-0.0196906742,	-0.0281949904
	-0.0024261895,	 0.0503111908
	 0.0599740927,	-0.0112270931
	-0.0244133149,	-0.0418023318
	-0.0102897756,	 0.0465774257
	 0.0701164348,	-0.0107034495
	-0.0122163836,	-0.0755544216
	-0.0520286647,	 0.00836276534
	 0.0167620729,	 0.0125241885
	-0.0139155518,	-0.0342973893
	-0.036411531,	 0.0115696262
	-0.004441534,	 0.000871239239
	-0.0621144348,	 0.00424617102
	-0.0247819756,	 0.110581781
	 0.109216452,	 0.0589684726
	 0.055131214,	-0.0623644578
	-0.00995247024,	 0.00330732989
	 0.0816242868,	-0.00719617281
	 0.0154375192,	-0.12518937
	-0.110856724,	-0.037374542
	-0.0151641439,	 0.0622733811
	 0.0262369795,	-0.0454237581
	-0.0938862287,	-0.0296975673
	-0.0511502135,	 0.0871154924
	 0.0301695195,	 0.0435614472
	-0.00917664279,	 0.0292072674
	 0.0434585456,	 0.069735811
	 0.0843123437,	-0.0128495231
	 0.0170869967,	-0.0340586024
	 0.0429845679,	-0.00674172541
	 0.038329096,	-0.0855520758
	-0.0722996938,	-0.075856214
	-0.0672479145,	 0.0392720063
	 0.0346109888,	 0.0199473338
	-0.0193022458,	-0.0689409995
	-0.102644986,	 0.018616018
	-0.0126898288,	 0.0831135602
	 0.0124647089,	 0.0461648347
END
BEGIN
	 0.105245066,	 0.0486664971
	 0.0854316151,	-0.02764506
	 0.0733467819,	-0.00179164507
	 0.0644075203,	-0.0199956256
	 0.0537996623,	 0.0211681028
	 0.115542343,	 0.00870436138
	 0.0818089964,	-0.059127662
	 0.0244208995,	-0.0154502814
	 0.0662671545,	 0.0213804205
	 0.0858372922,	-0.00832594664
	 0.0783456334,	-0.0256403303
	 0.0512206267,	-0.0393184434
	 0.0292548647,	-0.0065238605
	 0.0591090855,	 0.00830935945
	 0.0594372682,	-0.0138889327
	 0.0432983324,	-0.00601531836
	 0.0517050444,	 0.00928312598
	 0.0714898539,	 0.00490430256
	 0.0745272597,	-0.0249875469
	 0.0387199104,	-0.0374701517
	 0.0189588042,	-0.00854366004
	 0.0361969066,	 0.00679512817
	 0.037023503,	-0.0116198807
	-0.00408477012,	-0.00316797346
	-0.00503605538,	 0.0685518355
	 0.0804208865,	 0.0927279308
	 0.124965309,	 0.020015761
	 0.0748011568,	-0.0362836486
	 0.0108256656,	 0.00253917606
	 0.0457977843,	 0.0766159725
	 0.131373009,	 0.0495691319
	 0.118642474,	-0.0335346841
	 0.0531579065,	-0.0349049671
	 0.0511470323,	 0.0143770269
	 0.0978416428,	 0.0080125595
	 0.0911611719,	-0.0548727951
	 0.00669058952,	-0.0568770412
	-0.00462350927,	 0.0321301652
	 0.0692483479,	 0.0469567997
	 0.0839654572,	-0.01183888
	 0.0186157745,	-0.0316880657
	-0.0152963074,	 0.060596364
	 0.101059696,	 0.113008921
	 0.16408295,	-0.00449733985
	 0.0650472338,	-0.0599377174
	 0.034855241,	 0.0170604882
	 0.0918528746,	 0.0240372035
	 0.10494914,	-0.00787855972
	 0.0995815807,	-0.0649588876
	-0.00285127676,	-0.059595607
END
BEGIN
	 0.4383383,	-0.840132745
	-0.457364248,	-0.700517711
	-0.700220519,	 0.0204418808
	-0.317112016,	 0.502689902
	 0.210502984,	 0.478704125
	 0.47159153,	 0.0981047942
	 0.364338625,	-0.325419577
	-0.067642283,	-0.525237832
	-0.517316793,	-0.253310106
	-0.544491984,	 0.319200902
	-0.0211861162,	 0.688509494
	 0.610295562,	 0.397761714
	 0.678836894,	-0.324379872
	 0.0748789965,	-0.75832373
	-0.603114665,	-0.455160412
	-0.6937365,	 0.266315957
	-0.138290596,	 0.716680182
	 0.519661582,	 0.484859504
	 0.675754156,	-0.168032869
	 0.227828167,	-0.659319038
	-0.438144346,	-0.550364275
	-0.706155676,	 0.0745845321
	-0.320533445,	 0.646485099
	 0.384558418,	 0.622456474
	 0.734196886,	-0.000426769052
	 0.381529082,	-0.618312574
	-0.311836786,	-0.638421948
	-0.693154551,	-0.0845291184
	-0.439239647,	 0.536054067
	 0.216640409,	 0.640394827
	 0.636907174,	 0.170228643
	 0.506020491,	-0.439832495
	-0.105963936,	-0.684245847
	-0.645891196,	-0.274659124
	-0.589651003,	 0.401413402
	 0.0252328024,	 0.73218461
	 0.649007874,	 0.364785906
	 0.640040283,	-0.366822093
	 0.0154084316,	-0.709242586
	-0.557182292,	-0.363644469
	-0.561473007,	 0.253787583
	-0.0814930645,	 0.554078125
	 0.368663144,	 0.341635672
	 0.466824722,	-0.0891030211
	 0.201198346,	-0.441715488
	-0.269052433,	-0.443422227
	-0.584025564,	-0.0398278197
	-0.431176851,	 0.552669839
	 0.294784826,	 0.783191366
	 0.943306943,	 0.140553804
END
BEGIN
	-0.0323380522,	 0.023771951
	 0.0606808233,	 0.0268941231
	-0.00241013997,	-0.072727919
	-0.0634894437,	 0.0301920111
	 0.0494838637,	 0.0509283185
	 0.0415975481,	-0.0564236356
	-0.0522659186,	-0.0294104006
	-0.00227728851,	 0.0427292613
	 0.0346992315,	-0.0372135198
	-0.0708064225,	-0.0324982194
	-0.0287721809,	 0.0795917456
	 0.0600496199,	 0.0120465047
	-0.0195968246,	-0.0277127717
	-0.00204539104,	 0.0503558092
	 0.0599756298,	-0.0114540462
	-0.0246498843,	-0.0416057167
	-0.00998522112,	 0.0470506631
	 0.0708480178,	-0.0108504242
	-0.0120539132,	-0.0762854638
	-0.0524993963,	 0.00806704425
